! Sonnet Data File
! From: sonnet Version : 18.53-Lite
! From Emgraph Data: 
! Data File Written: 03/29/2024 15:56:34
!< HDATE 03/29/2024 15:54:20
!< MDATE 03/29/2024 15:54:20
!< PARAMS
!< L0 = 1.7
!< W1 = 0.9
!< L1 = 8.85
!< Lstub = 8.0
!< Wstub = 0.7
!< L2 = 8.68
!< W2 = 1.35
!< END PARAMS
# GHZ S MA R 50.00000
4.000000000000000 0.9795948950450 9.7209060160827 5.9032531583e-4 22.872861280792 5.9032531583e-4 22.872861280791 0.9775868374179 14.354439779751
4.010000000000001 0.9795005926424 8.8696574306052 6.0606501858e-4 22.720086055148 6.0606501858e-4 22.720086055148 0.9774664951755 13.454341852496
4.020000000000000 0.9794019593548 8.0135070011866 6.2265096043e-4 22.576932668847 6.2265096043e-4 22.576932668847 0.9773413661380 12.548757543836
4.030000000000000 0.9792987642998 7.1522680585046 6.4014425715e-4 22.443061994761 6.4014425715e-4 22.443061994761 0.9772111977914 11.637492123923
4.040000000000000 0.9791907632501 6.2857467991469 6.5861126323e-4 22.318085063763 6.5861126323e-4 22.318085063763 0.9770757229446 10.720341589791
4.050000000000000 0.9790776967321 5.4137411894743 6.7812408771e-4 22.201561262568 6.7812408771e-4 22.201561262568 0.9769346579622 9.7970932729151
4.060000000000000 0.9789592889538 4.5360404927926 6.9876115185e-4 22.092995580671 6.9876115185e-4 22.092995580671 0.9767877016247 8.8675253512586
4.070000000000000 0.9788352466360 3.6524247631191 7.2060780621e-4 21.991835964337 7.2060780621e-4 21.991835964337 0.9766345338888 7.9314063275025
4.080000000000000 0.9787052577364 2.7626643027243 7.4375701443e-4 21.897470812205 7.4375701443e-4 21.897470812205 0.9764748145374 6.9884944706423
4.090000000000000 0.9785689900567 1.8665190803518 7.6831011160e-4 21.809226648094 7.6831011160e-4 21.809226648094 0.9763081817080 6.0385372178882
4.100000000000001 0.9784260897196 0.9637381067054 7.9437764639e-4 21.726366006894 7.9437764639e-4 21.726366006894 0.9761342502870 5.0812705334883
4.110000000000000 0.9782761795031 0.0540587634492 8.2208031734e-4 21.648085568827 8.2208031734e-4 21.648085568827 0.9759526101564 4.1164182207664
4.120000000000000 0.9781188570152 -0.862793918426 8.5155001519e-4 21.573514575839 8.5155001519e-4 21.573514575839 0.9757628242771 3.1436911832827
4.130000000000000 0.9779536926930 -1.787108035448 8.8293098467e-4 21.501713561253 8.8293098467e-4 21.501713561253 0.9755644265908 2.1627866306114
4.140000000000001 0.9777802276058 -2.719185648776 9.1638112145e-4 21.431673420011 9.1638112145e-4 21.431673420011 0.9753569197218 1.1733872237562
4.150000000000000 0.9775979710413 -3.659343687210 9.5207342178e-4 21.362314841867 9.5207342178e-4 21.362314841867 0.9751397724557 0.1751601547002
4.160000000000000 0.9774063978487 -4.607914922292 9.9019760539e-4 21.292488123660 9.9019760539e-4 21.292488123660 0.9749124169709 -0.832243846002
4.170000000000000 0.9772049455115 -5.565249022438 0.0010309619349 21.220973369387 0.0010309619349 21.220973369387 0.9746742457937 -1.849191580352
4.180000000000001 0.9769930109183 -6.531713693774 0.0010745952591 21.146481078271 0.0010745952591 21.146481078271 0.9744246084463 -2.876068540246
4.190000000000000 0.9767699467942 -7.507695916263 0.0011213493106 21.067653111460 0.0011213493106 21.067653111460 0.9741628077502 -3.913280159394
4.200000000000000 0.9765350577531 -8.493603284674 0.0011715012944 20.983064017628 0.0011715012944 20.983064017628 0.9738880957456 -4.961253169081
4.210000000000000 0.9762875959223 -9.489865465112 0.0012253568096 20.891222686715 0.0012253568096 20.891222686715 0.9735996691786 -6.020437068177
4.220000000000001 0.9760267560868 -10.49693577907 0.0012832531505 20.790574289628 0.0012832531505 20.790574289628 0.9732966645039 -7.091305718967
4.230000000000000 0.9757516702913 -11.51529292846 0.0013455630462 20.679502450181 0.0013455630462 20.679502450181 0.9729781523416 -8.174359081785
4.240000000000000 0.9754614018288 -12.54544287674 0.0014126989015 20.556331584136 0.0014126989015 20.556331584136 0.9726431313191 -9.270125103019
4.250000000000000 0.9751549385346 -13.58792090313 0.0014851176172 20.419329329217 0.0014851176172 20.419329329217 0.9722905212172 -10.37916177283
4.260000000000001 0.9748311852929 -14.64329384915 0.0015633260774 20.266708979646 0.0015633260774 20.266708979646 0.9719191553294 -11.50205937101
4.270000000000000 0.9744889556447 -15.71216257919 0.0016478874100 20.096631829314 0.0016478874100 20.096631829314 0.9715277719269 -12.63944292175
4.280000000000000 0.9741269623747 -16.79516467965 0.0017394281406 19.907209319267 0.0017394281406 19.907209319267 0.9711150047088 -13.79197488081
4.290000000000000 0.9737438069281 -17.89297742471 0.0018386463861 19.696504877990 0.0018386463861 19.696504877990 0.9706793720929 -14.96035808168
4.300000000000001 0.9733379674878 -19.00632104039 0.0019463212556 19.462535336766 0.0019463212556 19.462535336766 0.9702192651829 -16.14533897092
4.310000000000000 0.9729077855137 -20.13596230320 0.0020633236613 19.203271797415 0.0020633236613 19.203271797415 0.9697329342199 -17.34771116700
4.320000000000000 0.9724514505090 -21.28271851484 0.0021906287749 18.916639825491 0.0021906287749 18.916639825491 0.9692184732922 -18.56831938195
4.330000000000000 0.9719669827398 -22.44746190042 0.0023293304127 18.600518838474 0.0023293304127 18.600518838474 0.9686738030390 -19.80806375040
4.340000000000000 0.9714522135843 -23.63112448482 0.0024806576840 18.252740555111 0.0024806576840 18.252740555111 0.9680966510383 -21.06790461748
4.350000000000001 0.9709047631284 -24.83470351000 0.0026459943045 17.871086368464 0.0026459943045 17.871086368464 0.9674845295123 -22.34886784444
4.360000000000000 0.9703220145519 -26.05926746590 0.0028269010527 17.453283500685 0.0028269010527 17.453283500685 0.9668347099158 -23.65205069998
4.370000000000000 0.9697010847646 -27.30596281905 0.0030251419449 16.996999791532 0.0030251419449 16.996999791532 0.9661441938923 -24.97862841569
4.380000000000000 0.9690387906431 -28.57602153656 0.0032427148201 16.499836964221 0.0032427148201 16.499836964221 0.9654096799836 -26.32986149637
4.390000000000001 0.9683316100896 -29.87076951936 0.0034818871718 15.959322200630 0.0034818871718 15.959322200630 0.9646275253551 -27.70710389103
4.400000000000000 0.9675756369763 -31.19163607766 0.0037452382356 15.372897841981 0.0037452382356 15.372897841981 0.9637937016540 -29.11181214720
4.410000000000000 0.9667665288379 -32.54016460464 0.0040357085623 14.737909009871 0.0040357085623 14.737909009871 0.9629037439311 -30.54555569271
4.420000000000000 0.9658994459341 -33.91802463169 0.0043566585723 14.051588914556 0.0043566585723 14.051588914556 0.9619526913329 -32.01002841310
4.430000000000001 0.9649689799957 -35.32702548173 0.0047119379194 13.311041581076 0.0047119379194 13.311041581076 0.9609350179868 -33.50706172320
4.440000000000000 0.9639690787518 -36.76913146404 0.0051059676506 12.513225106939 0.0051059676506 12.513225106939 0.9598445496786 -35.03864026132
4.450000000000000 0.9628929065475 -38.24648110527 0.0055438397232 11.654911070151 0.0055438397232 11.654911070151 0.9586743812756 -36.60691422172
4.460000000000000 0.9617328093224 -39.76140420911 0.0060314318804 10.732691658918 0.0060314318804 10.732691658918 0.9574167399917 -38.21422743909
4.470000000000001 0.9604800943111 -41.31644813075 0.0065755511208 9.7429139490343 0.0065755511208 9.7429139490343 0.9560628774864 -39.86313031077
4.480000000000000 0.9591249052524 -42.91440283681 0.0071841020008 8.6816607058317 0.0071841020008 8.6816607058317 0.9546028996264 -41.55640933388
4.490000000000000 0.9576560154881 -44.55833195127 0.0078662917331 7.5447048912210 0.0078662917331 7.5447048912210 0.9530255801826 -43.29711503790
4.500000000000000 0.9560605882455 -46.25160835891 0.0086328784866 6.3274609042655 0.0086328784866 6.3274609042655 0.9513181339300 -45.08859525445
4.510000000000001 0.9543238859447 -47.99795560462 0.0094964734638 5.0249279251709 0.0094964734638 5.0249279251709 0.9494659424647 -46.93453365268
4.520000000000000 0.9524289157176 -49.80149621582 0.0104719097697 3.6316238846334 0.0104719097697 3.6316238846334 0.9474522210207 -48.83899453825
4.530000000000000 0.9503559946089 -51.66680832646 0.0115766945367 2.1415082337226 0.0115766945367 2.1415082337226 0.9452576112052 -50.80647512939
4.540000000000000 0.9480822130010 -53.59899229216 0.0128315652039 0.5478912552661 0.0128315652039 0.5478912552661 0.9428596801106 -52.84196678942
4.550000000000001 0.9455807682275 -55.60374937200 0.0142611765438 -1.156672886743 0.0142611765438 -1.156672886743 0.9402323003222 -54.95102702147
4.560000000000000 0.9428201315041 -57.68747503049 0.0158949523458 -2.980512846343 0.0158949523458 -2.980512846343 0.9373448773692 -57.13986443021
4.570000000000000 0.9397629993879 -59.85737000110 0.0177681450573 -4.932990886588 0.0177681450573 -4.932990886588 0.9341613804283 -59.41543933969
4.580000000000000 0.9363649648057 -62.12157296959 0.0199231586774 -7.024683176352 0.0199231586774 -7.024683176352 0.9306391175407 -61.78558333473
4.590000000000000 0.9325728206870 -64.48931959434 0.0224112054143 -9.267596337410 0.0224112054143 -9.267596337410 0.9267271768211 -64.25914166702
4.600000000000001 0.9283223792145 -66.97113358103 0.0252943856526 -11.67542862011 0.0252943856526 -11.67542862011 0.9223644281954 -66.84614321758
4.610000000000000 0.9235356487585 -69.57905663402 0.0286483040786 -14.26388605231 0.0286483040786 -14.26388605231 0.9174769435016 -69.55800347441
4.620000000000000 0.9181171549202 -72.32692520674 0.0325653622239 -17.05106618952 0.0325653622239 -17.05106618952 0.9119746430184 -72.40776662351
4.630000000000000 0.9119491172253 -75.23070280788 0.0371588976853 -20.05792457425 0.0371588976853 -20.05792457425 0.9057469096611 -75.41039305728
4.640000000000001 0.9048850941101 -78.30887663576 0.0425683682577 -23.30884134583 0.0425683682577 -23.30884134583 0.8986568241604 -78.58309775802
4.650000000000000 0.8967415828808 -81.58292539391 0.0489657942805 -26.83230682985 0.0489657942805 -26.83230682985 0.8905335632123 -81.94574191362
4.660000000000000 0.8872869118617 -85.07785910730 0.0565636512384 -30.66174369175 0.0565636512384 -30.66174369175 0.8811623719635 -85.52127247738
4.670000000000000 0.8762266108485 -88.82281745953 0.0656242997763 -34.83647598186 0.0656242997763 -34.83647598186 0.8702713937150 -89.33618790987
4.680000000000001 0.8631843592238 -92.85168286851 0.0764707602713 -39.40283562353 0.0764707602713 -39.40283562353 0.8575145762693 -93.42097517518
4.690000000000000 0.8476777528821 -97.20360416421 0.0894980149567 -44.41535256068 0.0894980149567 -44.41535256068 0.8424500305975 -97.81039913081
4.700000000000000 0.8290888701095 -101.9232117621 0.1051827582802 -49.93788465969 0.1051827582802 -49.93788465969 0.8245139385232 -102.5434065111
4.710000000000000 0.8066317132762 -107.0600952934 0.1240871522137 -56.04437286614 0.1240871522137 -56.04437286614 0.8029921007026 -107.6621937550
4.720000000000001 0.7793234763580 -112.6667507896 0.1468480817234 -62.81860691455 0.1468480817234 -62.81860691455 0.7769958013645 -113.2096260979
4.730000000000000 0.7459764805718 -118.7936211853 0.1741372770356 -70.35190898028 0.1741372770356 -70.35190898028 0.7454579121842 -119.2236303179
4.740000000000000 0.7052449058244 -125.4790377195 0.2065705617986 -78.73700529985 0.2065705617986 -78.73700529985 0.7071812174697 -125.7264315620
4.750000000000000 0.6557840388642 -132.7310206327 0.2445418331183 -88.05581722409 0.2445418331183 -88.05581722409 0.6609926474929 -132.7058425220
4.760000000000001 0.5965954578721 -140.4977126240 0.2879730535703 -98.35926954937 0.2879730535703 -98.35926954937 0.6060708369248 -140.0861361774
4.770000000000000 0.5275981466734 -148.6250274514 0.3360265224051 -109.6400157148 0.3360265224051 -109.6400157148 0.5424809213712 -147.6891744502
4.780000000000000 0.4503224766583 -156.8048467991 0.3869234390578 -121.8055106788 0.3869234390578 -121.8055106788 0.4718118292764 -155.1946061211
4.790000000000000 0.3683782140845 -164.5220993283 0.4380837862642 -134.6668816374 0.4380837862642 -134.6668816374 0.3975717714514 -162.1211153330
4.800000000000001 0.2872162523080 -171.0057349275 0.4866975969475 -147.9597199971 0.4866975969475 -147.9597199971 0.3248577844027 -167.8645341854
4.810000000000000 0.2130137369067 -175.1741945110 0.5305159194407 -161.3973849849 0.5305159194407 -161.3973849849 0.2590859067760 -171.8371243547
4.820000000000000 0.1511516922737 -175.5843102186 0.5684004761701 -174.7336232055 0.5684004761701 -174.7336232055 0.2041958180801 -173.7390422283
4.830000000000000 0.1049640467030 -170.5997142935 0.6003345883137 172.19653078777 0.6003345883137 172.19653078777 0.1611979135583 -173.8818659388
4.840000000000000 0.0747916877785 -159.4576137821 0.6270176440536 159.47122802976 0.6270176440536 159.47122802976 0.1279285921562 -173.2315377444
4.850000000000001 0.0572378019185 -143.8580579459 0.6493820631357 147.10230583613 0.6493820631357 147.10230583613 0.1003610303131 -172.8709152355
4.860000000000000 0.0467811107598 -125.9413843621 0.6682685006619 135.06389245325 0.6682685006619 135.06389245325 0.0746418013480 -173.2202731289
4.870000000000000 0.0405904418596 -104.2773770750 0.6843021048224 123.31632671892 0.6843021048224 123.31632671892 0.0484429218727 -173.2446073557
4.880000000000000 0.0410722997818 -78.51273008026 0.6979062930945 111.82086921371 0.6979062930945 111.82086921371 0.0215263969157 -165.1889173607
4.890000000000001 0.0509961399736 -57.45542276423 0.7093758515394 100.54595185670 0.7093758515394 100.54595185671 0.0124291845849 -56.66383897064
4.900000000000000 0.0679827635908 -46.60274822506 0.7189535689525 89.467622412299 0.7189535689525 89.467622412299 0.0391984153585 -33.35715069709
4.910000000000000 0.0880805115410 -43.23979163153 0.7268845694591 78.566999881747 0.7268845694591 78.566999881747 0.0669047225909 -35.60601189575
4.920000000000000 0.1084641486429 -44.18034868937 0.7334368901601 67.826825250789 0.7334368901601 67.826825250789 0.0926635139618 -41.41325083706
4.930000000000001 0.1272929752752 -47.58662328289 0.7388969164076 57.228577731833 0.7388969164076 57.228577731833 0.1153545040240 -48.48769432461
4.940000000000000 0.1433588515753 -52.47928956291 0.7435482329930 46.750766766371 0.7435482329930 46.750766766371 0.1342312596951 -56.18730860546
4.950000000000000 0.1559036815240 -58.32235754902 0.7476459116429 36.368506390513 0.7476459116429 36.368506390513 0.1488449964465 -64.24359871235
4.960000000000000 0.1645171063968 -64.81315066910 0.7513946115779 26.054107321318 0.7513946115779 26.054107321318 0.1590140071434 -72.51680882527
4.970000000000001 0.1690651267214 -71.77999922432 0.7549350947875 15.778276539704 0.7549350947875 15.778276539704 0.1647900697860 -80.92157467127
4.980000000000000 0.1696337142888 -79.13090529490 0.7583403770285 5.5115137684886 0.7583403770285 5.5115137684886 0.1664227698274 -89.39607650084
4.990000000000000 0.1664822036139 -86.82743609425 0.7616204952646 -4.774627562423 0.7616204952646 -4.774627562423 0.1643247404006 -97.88554482155
5.000000000000000 0.1600035466615 -94.87233572593 0.7647336955678 -15.10664344389 0.7647336955678 -15.10664344389 0.1590382807777 -106.3313300812
5.010000000000001 0.1506888187073 -103.3055385862 0.7676013754086 -25.50867400708 0.7676013754086 -25.50867400708 0.1512018126533 -114.6622982378
5.020000000000000 0.1390938333302 -112.2059509510 0.7701240465066 -36.00262927886 0.7701240465066 -36.00262927886 0.1415140468413 -122.7871918462
5.030000000000000 0.1258066868723 -121.6974151179 0.7721958838727 -46.60881158398 0.7721958838727 -46.60881158398 0.1306945141454 -130.5874228135
5.040000000000000 0.1114156447145 -131.9571565371 0.7737150743222 -57.34697089668 0.7737150743222 -57.34697089668 0.1194406511107 -137.9099600990
5.050000000000001 0.0964765990696 -143.2248411966 0.7745905883234 -68.23764269999 0.7745905883234 -68.23764269999 0.1083850595824 -144.5601037951
5.060000000000000 0.0814742547673 -155.8083734428 0.7747410346452 -79.30377880644 0.7747410346452 -79.30377880644 0.0980591994225 -150.2908314313
5.070000000000000 0.0667646578072 -170.0870807439 0.7740883825265 -90.57256919734 0.7740883825265 -90.57256919734 0.0888803457911 -154.7821370816
5.080000000000000 0.0524775499151 173.45894673228 0.7725429871014 -102.0775688830 0.7725429871014 -102.0775688830 0.0811958281772 -157.6002647191
5.090000000000001 0.0383706055622 153.99396215330 0.7699769362181 -113.8612170179 0.7699769362181 -113.8612170179 0.0754547708849 -158.1521928341
5.100000000000001 0.0237590767039 128.43633748711 0.7661782067385 -125.9777682957 0.7661782067385 -125.9777682957 0.0726120481271 -155.7764829476
5.110000000000000 0.0096541607645 67.598894382896 0.7607738719646 -138.4962777567 0.7607738719644 -138.4962777567 0.0747589341194 -150.3760998980
5.120000000000000 0.0209307197219 -41.79865577858 0.7531073539921 -151.5023993911 0.7531073539921 -151.5023993911 0.0854013360231 -143.6692183114
5.130000000000000 0.0515378375251 -74.83828769632 0.7420669931426 -165.0959288895 0.7420669931426 -165.0959288895 0.1084363119568 -139.0201585691
5.140000000000001 0.0948805458051 -97.29017938385 0.7258937173741 -179.3784675966 0.7258937173741 -179.3784675966 0.1466839358565 -138.7796470230
5.150000000000000 0.1530579500680 -117.1546709876 0.7021010663059 165.57721698343 0.7021010663059 165.57721698343 0.2014764764465 -143.1318871939
5.160000000000000 0.2268364053093 -136.0475761841 0.6677866678583 149.78228927238 0.6677866678583 149.78228927238 0.2723132559803 -151.2083064299
5.170000000000000 0.3138447553159 -154.4461128498 0.6206706904172 133.40167202243 0.6206706904172 133.40167202243 0.3558738731025 -161.9674238998
5.180000000000001 0.4079297594167 -172.3411923481 0.5607509879339 116.79625510323 0.5607509879339 116.79625510323 0.4455429020500 -174.4006088088
5.190000000000000 0.5005685238971 170.55535780888 0.4914521484986 100.47742063778 0.4914521484986 100.47742063778 0.5328481347141 172.44283422381
5.200000000000000 0.5840345379337 154.61335722703 0.4188518304487 84.965707522900 0.4188518304487 84.965707522900 0.6104935660094 159.37702080096
5.210000000000000 0.6540158494102 140.10635018125 0.3492410614667 70.639337004731 0.3492410614667 70.639337004731 0.6747110310562 146.97823276447
5.220000000000001 0.7099183415615 127.13213830527 0.2869865118384 57.669892794197 0.2869865118384 57.669892794197 0.7253302130206 135.55402389480
5.230000000000000 0.7534729605363 115.63511855618 0.2339710065100 46.054260174345 0.2339710065100 46.054260174345 0.7643020205955 125.19643994812
5.240000000000000 0.7871972246508 105.47116491120 0.1902105163430 35.685900149834 0.1902105163430 35.685900149834 0.7941945195443 115.86681022116
5.250000000000000 0.8134798958286 96.465237226496 0.1547327227869 26.416823094711 0.1547327227869 26.416823094711 0.8173476045309 107.46641427137
5.260000000000001 0.8342469048894 88.445936392280 0.1262257152272 18.095169205665 0.1262257152272 18.095169205665 0.8355958648224 99.879750381620
5.270000000000000 0.8509375733641 81.260877651008 0.1033905987707 10.582701150579 0.1033905987707 10.582701150579 0.8502784342332 92.995818943108
5.280000000000000 0.8645915318040 74.780852476894 0.0850890365632 3.7604636366231 0.0850890365632 3.7604636366231 0.8623418762939 86.716354051619
5.290000000000000 0.8759513847622 68.898746357756 0.0703809793861 -2.471232148522 0.0703809793861 -2.471232148522 0.8724486472821 80.957582924338
5.300000000000001 0.8855486566680 63.526552988949 0.0585136200068 -8.195029160458 0.0585136200068 -8.195029160458 0.8810638708395 75.649249741208
5.310000000000000 0.8937674895743 58.592060854258 0.0488934301177 -13.47928526501 0.0488934301177 -13.47928526501 0.8885177902583 70.732740320984
5.320000000000000 0.9008894058510 54.035842321631 0.0410557474770 -18.38068242842 0.0410557474770 -18.38068242842 0.8950486345035 66.159111591237
