! Sonnet Data File
! From: sonnet Version : 18.53-Lite
! From Emgraph Data: 
! Data File Written: 03/28/2024 08:34:15
!< HDATE 03/28/2024 08:18:05
!< MDATE 03/28/2024 08:18:05
!< PARAMS
!< L1 = 4.11
!< W1 = 0.1
!< W2 = 5.0
!< L3 = 8.62
!< L2 = 5.62
!< END PARAMS
# GHZ S MA R 50.00000
0.100000000000000 0.0142429187331 68.140058182441 0.9970447649829 -12.98539732053 0.9970447649829 -12.98539732053 0.0143168804136 66.259766484881
0.120000000000000 0.0166289362818 66.460955592434 0.9967041866801 -15.56555939384 0.9967041866798 -15.56555939380 0.0167276730043 64.148984110365
0.140000000000000 0.0191612402766 64.842856387069 0.9961452529456 -18.15470248936 0.9961452529456 -18.15470248936 0.0193720847819 61.259740705243
0.160000000000000 0.0216631908145 62.883563546204 0.9954450952692 -20.73998495902 0.9954450952692 -20.73998495902 0.0219507581170 57.980591854621
0.180000000000000 0.0240094953679 60.690853649794 0.9947316467966 -23.31675248081 0.9947316467966 -23.31675248081 0.0243224565156 54.678699906446
0.200000000000000 0.0261490401089 58.430254965215 0.9941060396311 -25.88577775834 0.9941060396311 -25.88577775834 0.0264493958093 51.550900240471
0.220000000000000 0.0280812444774 56.203408066159 0.9936200498379 -28.45025086343 0.9936200498379 -28.45025086343 0.0283475826683 48.661285297024
0.240000000000000 0.0298275409947 54.046033209545 0.9932824386311 -31.01368906944 0.9932824386311 -31.01368906944 0.0300523093735 45.996057776686
0.260000000000000 0.0314121341558 51.953449529189 0.9930748421194 -33.57890183073 0.9930748421194 -33.57890183073 0.0315984770153 43.505060383235
0.280000000000000 0.0328528457488 49.903897769216 0.9929665728216 -36.14770144985 0.9929665728216 -36.14770144985 0.0330120089220 41.127831790904
0.300000000000000 0.0341587944619 47.873366118848 0.9929248029648 -38.72099795618 0.9929248029648 -38.72099795618 0.0343078890660 38.807712026857
0.320000000000000 0.0353315620395 45.842838644065 0.9929202476251 -41.29902984610 0.9929202476251 -41.29902984610 0.0354914198478 36.498087612387
0.340000000000000 0.0363675141713 43.800528156298 0.9929296126045 -43.88160087511 0.9929296126045 -43.88160087511 0.0365606363341 34.163982546404
0.360000000000000 0.0372600326599 41.741464361760 0.9929360840444 -46.46827161836 0.9929360840444 -46.46827161836 0.0375088000410 31.781181630001
0.380000000000000 0.0380012038474 39.666054153490 0.9929287949040 -49.05849604057 0.9929287949040 -49.05849604057 0.0383264988504 29.334268266973
0.400000000000000 0.0385829292284 37.578489009781 0.9929018466875 -51.65171052925 0.9929018466875 -51.65171052925 0.0390032142027 26.814382009795
0.420000000000000 0.0389975805292 35.485365766276 0.9928532017338 -54.24738722039 0.9928532017338 -54.24738722039 0.0395283829893 24.217106403870
0.440000000000000 0.0392383479825 33.394612917839 0.9927835971610 -56.84506273316 0.9927835971610 -56.84506273316 0.0398920530350 21.540643667900
0.460000000000000 0.0392994163467 31.314704599422 0.9926955442413 -59.44435171746 0.9926955442407 -59.44435171739 0.0400852575170 18.784288942785
0.480000000000000 0.0391760793917 29.254136044947 0.9925924485997 -62.04495307654 0.9925924485997 -62.04495307654 0.0401002383861 15.947162636077
0.500000000000000 0.0388648625943 27.221176576225 0.9924778977107 -64.64665458737 0.9924778977107 -64.64665458737 0.0399306285150 13.027170195626
0.520000000000000 0.0383636581533 25.223950648593 0.9923551758569 -67.24933793385 0.9923551758569 -67.24933793385 0.0395716466739 10.020187828626
0.540000000000000 0.0376718131509 23.270875619732 0.9922270403438 -69.85298184889 0.9922270403438 -69.85298184889 0.0390202849760 6.9194614484968
0.560000000000000 0.0367901006960 21.371415265890 0.9920957208945 -72.45765900057 0.9920957208945 -72.45765900057 0.0382754248890 3.7151331911833
0.580000000000000 0.0357205602547 19.537063074994 0.9919630364907 -75.06352422112 0.9919630364907 -75.06352422112 0.0373378413430 0.3937189974800
0.600000000000000 0.0344662701231 17.782512790539 0.9918305149936 -77.67079582192 0.9918305149936 -77.67079582192 0.0362101228021 -3.062686834875
0.620000000000000 0.0330311525375 16.127099658682 0.9916994502748 -80.27973451753 0.9916994502748 -80.27973451753 0.0348965917576 -6.677703462028
0.640000000000000 0.0314198981806 14.596759103114 0.9915708928314 -82.89062429860 0.9915708928314 -82.89062429860 0.0334033249143 -10.48268117238
0.660000000000000 0.0296380650369 13.226940813602 0.9914456042099 -85.50375756661 0.9914456042099 -85.50375756661 0.0317383616711 -14.51975095008
0.680000000000000 0.0276923947608 12.067201001238 0.9913240085085 -88.11942480797 0.9913240085085 -88.11942480797 0.0299121882805 -18.84639993603
0.700000000000000 0.0255914205401 11.188725424866 0.9912061614136 -90.73790796029 0.9912061614136 -90.73790796029 0.0279386214197 -23.54240024926
0.720000000000000 0.0233465343572 10.697101517320 0.9910917434044 -93.35947635508 0.9910917434044 -93.35947635508 0.0258363114290 -28.72044520375
0.740000000000000 0.0209738907107 10.754858703078 0.9909800750949 -95.98438430025 0.9909800750949 -95.98438430025 0.0236312770790 -34.54259402336
0.760000000000000 0.0184979945295 11.622908845680 0.9908701492182 -98.61286966237 0.9908701492182 -98.61286966237 0.0213612358155 -41.24536622824
0.780000000000000 0.0159589453056 13.739494645136 0.9907606734774 -101.2451530619 0.9907606734774 -101.2451530619 0.0190830935663 -49.17560224450
0.800000000000000 0.0134280990693 17.871549898879 0.9906501195678 -103.8814374677 0.9906501195678 -103.8814374677 0.0168857435112 -58.83083402665
0.820000000000000 0.0110434167119 25.373546176783 0.9905367750319 -106.5219080806 0.9905367750319 -106.5219080806 0.0149101363773 -70.86136587346
0.840000000000000 0.0090838011395 38.350870291141 0.9904187957855 -109.1667324533 0.9904187957855 -109.1667324533 0.0133718530400 -85.88596926128
0.860000000000000 0.0080523871333 58.173681160224 0.9902942580101 -111.8160608218 0.9902942580101 -111.8160608218 0.0125550753172 -103.8628135914
0.880000000000000 0.0084672946794 80.642572378963 0.9901612086704 -114.4700266429 0.9901612086704 -114.4700266429 0.0127154422386 -123.2554542999
0.900000000000000 0.0102811016132 98.126956157311 0.9900177142533 -117.1287473350 0.9900177142533 -117.1287473350 0.0139174600982 -141.4992552004
0.920000000000000 0.0130112575265 108.88460274832 0.9898619075037 -119.7923252275 0.9898619075037 -119.7923252275 0.0160056646983 -156.8908045871
0.940000000000000 0.0162684408649 114.95431235546 0.9896920320050 -122.4608487222 0.9896920320051 -122.4608487222 0.0187450861635 -169.2642677965
0.960000000000000 0.0198419859701 118.20189023429 0.9895064844585 -125.1343936747 0.9895064844585 -125.1343936747 0.0219362538624 -179.2083791410
0.980000000000000 0.0236212572793 119.74113172582 0.9893038545165 -127.8130249983 0.9893038545165 -127.8130249983 0.0254396787074 172.61544191474
1.000000000000000 0.0275423225380 120.20040759870 0.9890829619338 -130.4967984959 0.9890829619338 -130.4967984959 0.0291618468301 165.69189449704
1.020000000000000 0.0315631650490 119.94372443508 0.9888428908189 -133.1857629225 0.9888428908189 -133.1857629225 0.0330382503656 159.65964625818
1.040000000000000 0.0356524896378 119.19154950471 0.9885830206768 -135.8799622770 0.9885830206768 -135.8799622770 0.0370216689367 154.27184864831
1.060000000000000 0.0397844310889 118.08356177772 0.9883030539245 -138.5794383236 0.9883030539245 -138.5794383236 0.0410750837137 149.35920592240
1.080000000000000 0.0439359010557 116.71194952586 0.9880030395257 -141.2842333360 0.9880030395257 -141.2842333360 0.0451675186681 144.80379662990
1.100000000000000 0.0480851823372 115.13978775179 0.9876833923797 -143.9943930588 0.9876833923797 -143.9943930588 0.0492715847659 140.52186425364
1.120000000000000 0.0522111483329 113.41161396096 0.9873449080909 -146.7099698766 0.9873449080909 -146.7099698766 0.0533620018624 136.45269750102
1.140000000000000 0.0562928131409 111.55975978032 0.9869887727464 -149.4310261779 0.9869887727464 -149.4310261779 0.0574146886975 132.55141010739
1.160000000000000 0.0603090649443 109.60828064851 0.9866165673410 -152.1576378999 0.9866165673410 -152.1576378999 0.0614061900846 128.78418635418
1.180000000000000 0.0642385051074 107.57547516665 0.9862302664986 -154.8898982385 0.9862302664986 -154.8898982385 0.0653133090222 125.12509434152
1.200000000000000 0.0680593501846 105.47554826734 0.9858322311587 -157.6279215046 0.9858322311587 -157.6279215046 0.0691128661708 121.55390932773
1.220000000000000 0.0717493722087 103.31973896049 0.9854251949113 -160.3718471064 0.9854251949113 -160.3718471064 0.0727815400194 118.05459848680
1.240000000000000 0.0752858625206 101.11710443983 0.9850122436805 -163.1218436388 0.9850122436805 -163.1218436388 0.0762957588953 114.61424620116
1.260000000000000 0.0786456100096 98.875078729964 0.9845967884684 -165.8781130540 0.9845967884684 -165.8781130540 0.0796316265110 111.22227764506
1.280000000000000 0.0818048879460 96.599880819363 0.9841825308753 -168.6408948930 0.9841825308753 -168.6408948930 0.0827648691543 107.86988741195
1.300000000000000 0.0847394456267 94.296821190420 0.9837734211123 -171.4104705514 0.9837734211123 -171.4104705514 0.0856707966179 104.54961090300
1.320000000000000 0.0874245023771 91.970539675575 0.9833736082092 -174.1871675539 0.9833736082092 -174.1871675539 0.0883242715430 101.25499603239
1.340000000000000 0.0898347423773 89.625197656284 0.9829873820985 -176.9713638114 0.9829873820985 -176.9713638114 0.0906996835636 97.980345656888
1.360000000000000 0.0919443094792 87.264641521279 0.9826191072228 -179.7634918308 0.9826191072228 -179.7634918308 0.0927709258364 94.720509504094
1.380000000000000 0.0937268017845 84.892550729459 0.9822731472663 177.43595715329 0.9822731472663 177.43595715329 0.0945113724275 91.470709771295
1.400000000000000 0.0951552663342 82.512582082601 0.9819537805544 174.62642915817 0.9819537805544 174.62642915817 0.0958938557276 88.226387904186
1.420000000000000 0.0962021948986 80.128521593415 0.9816651055941 171.80730358239 0.9816651055941 171.80730358239 0.0968906436849 84.983061853322
1.440000000000000 0.0968395226314 77.744456630166 0.9814109361550 168.97788952654 0.9814109361550 168.97788952654 0.0974734172300 81.736183570995
1.460000000000000 0.0970386323605 75.364984140103 0.9811946852036 166.13742235432 0.9811946852036 166.13742235432 0.0976132488985 78.480985624388
1.480000000000000 0.0967703686996 72.995476425574 0.9810192369217 163.28506055037 0.9810192369217 163.28506055037 0.0972805843908 75.212303248119
1.500000000000000 0.0960050682263 70.642435552679 0.9808868059604 160.41988294084 0.9808868059604 160.41988294084 0.0964452297393 71.924353213402
1.520000000000000 0.0947126151408 68.313983545829 0.9807987830147 157.54088635460 0.9807987830147 157.54088635460 0.0950763480383 68.610442130601
1.540000000000000 0.0928625368848 66.020562732721 0.9807555657627 154.64698381773 0.9807555657627 154.64698381773 0.0931424715636 65.262561523633
1.560000000000000 0.0904241626905 63.775967779806 0.9807563742085 151.73700339050 0.9807563742085 151.73700339050 0.0906115380605 61.870800001433
1.580000000000000 0.0873668828910 61.598915376952 0.9807990495218 148.80968777656 0.9807990495218 148.80968777656 0.0874509649120 58.422453696207
1.600000000000000 0.0836605741630 59.515514456039 0.9808798355925 145.86369485711 0.9808798355925 145.86369485711 0.0836277837305 54.900623140935
1.620000000000000 0.0792763088561 57.563304804661 0.9809931427564 142.89759932947 0.9809931427564 142.89759932947 0.0791088748410 51.281900206277
1.640000000000000 0.0741875754895 55.798156012776 0.9811312935147 139.90989565878 0.9811312935147 139.90989565878 0.0738613759790 47.532360872409
1.660000000000000 0.0683724768925 54.306674570626 0.9812842506157 136.89900258430 0.9812842506157 136.89900258430 0.0678534173001 43.600206467090
1.680000000000000 0.0618179412030 53.229925346968 0.9814393286317 133.86326945598 0.9814393286317 133.86326945598 0.0610555249140 39.401258621432
1.700000000000000 0.0545284627421 52.812249161732 0.9815808911963 130.80098471248 0.9815808911963 130.80098471248 0.0534435540984 34.787707738409
1.720000000000000 0.0465462028225 53.511007823025 0.9816900374193 127.71038684689 0.9816900374193 127.71038684689 0.0450056409866 29.472509500334
1.740000000000000 0.0380036001866 56.269695097410 0.9817442827248 124.58967823738 0.9817442827248 124.58967823738 0.0357618030006 22.815305264958
1.760000000000000 0.0292843381333 63.261354953923 0.9817172415067 121.43704224552 0.9817172415067 121.43704224552 0.0258349049608 13.063918668761
1.780000000000000 0.0215853772797 79.698255274878 0.9815783215976 118.25066399840 0.9815783215976 118.25066399840 0.0158287791168 -6.328337503680
1.800000000000000 0.0183797403113 111.92821322229 0.9812924436148 115.02875526766 0.9812924436148 115.02875526766 0.0098294391475 -61.93688495739
1.820000000000000 0.0234762695073 144.01087483115 0.9808198017465 111.76958383118 0.9808198017465 111.76958383118 0.0168351858724 -119.0448939989
1.840000000000000 0.0345470657283 160.22006327843 0.9801156863754 108.47150764352 0.9801156863754 108.47150764352 0.0299735021147 -139.0815282920
1.860000000000000 0.0486032120593 166.96191576225 0.9791303929387 105.13301403913 0.9791303929387 105.13301403913 0.0451523736272 -149.1440814593
1.880000000000000 0.0645315131752 169.41666616977 0.9778092452936 101.75276403868 0.9778092452936 101.75276403868 0.0617334573139 -156.0846266047
1.900000000000000 0.0819472957981 169.74286214955 0.9760927651924 98.329641613503 0.9760927651924 98.329641613503 0.0795657429059 -161.7163057066
1.920000000000000 0.1006920641133 168.87903756510 0.9739170216963 94.862807478736 0.9739170216963 94.862807478736 0.0985950420503 -166.6958654226
1.940000000000000 0.1206835429651 167.28121973122 0.9712141947639 91.351756629292 0.9712141947639 91.351756629292 0.1187902394950 -171.3152352988
1.960000000000000 0.1418650290441 165.19401552642 0.9679133850200 87.796378406347 0.9679133850200 87.796378406347 0.1401222254092 -175.7230841373
1.980000000000000 0.1641851354698 162.75966179643 0.9639416959582 84.197017399230 0.9639416959582 84.197017399230 0.1625557264872 179.99741277293
2.000000000000000 0.1875883421251 160.06659710196 0.9592256047602 80.554532972430 0.9592256047602 80.554532972430 0.1860452743479 175.79659176802
2.020000000000000 0.2120100097382 157.17310031245 0.9536926229568 76.870354699454 0.9536926229568 76.870354699454 0.2105328637011 171.64353142466
2.040000000000000 0.2373735677745 154.11967575743 0.9472732282034 73.146530538546 0.9472732282034 73.146530538546 0.2359465261289 167.51860083471
2.060000000000000 0.2635889919713 150.93594967131 0.9399030240706 69.385764266853 0.9399030240706 69.385764266853 0.2621995780279 163.40942540266
2.080000000000000 0.2905522248360 147.64470608771 0.9315250574205 65.591438574008 0.9315250574205 65.591438574008 0.2891904903007 159.30856935400
2.100000000000000 0.3181454073572 144.26434322466 0.9220921950982 61.767620375636 0.9220921950982 61.767620375636 0.3168033920218 155.21213034664
2.120000000000000 0.3462378694358 140.81041143291 0.9115694366674 57.919045399443 0.9115694366674 57.919045399443 0.3449092301984 151.11883925645
2.140000000000000 0.3746878412434 137.29659124573 0.8999360217115 54.051079948572 0.8999360217115 54.051079948572 0.3733675885044 147.02944779509
2.160000000000000 0.4033448287476 133.73531503557 0.8871871827734 50.169658942398 0.8871871827734 50.169658942398 0.4020291314594 142.94628288244
2.180000000000000 0.4320525605309 130.13815309844 0.8733354015657 46.281200804055 0.8733354015657 46.281200804055 0.4307385950463 138.87289849140
2.200000000000000 0.4606523711217 126.51603945211 0.8584110483301 42.392501383567 0.8584110483301 42.392501383567 0.4593381976357 134.81378510945
2.220000000000000 0.4889868476263 122.87938688074 0.8424623216122 38.510610709063 0.8424623216122 38.510610709063 0.4876713036438 130.77411451408
2.240000000000000 0.5169035392542 119.23812578901 0.8255544551989 34.642697759133 0.8255544551989 34.642697759133 0.5155861433280 126.75950841265
2.260000000000000 0.5442585190106 115.60169237864 0.8077682151654 30.795909468715 0.8077682151654 30.795909468715 0.5429393806579 122.77582628598
2.280000000000000 0.5709195963015 111.97898581178 0.7891977660596 26.977230682286 0.7891977660596 26.977230682286 0.5695993298899 118.82897188881
2.300000000000000 0.5967690080819 108.37830984538 0.7699480340335 23.193351682084 0.7699480340337 23.193351682078 0.5954486497823 114.92472009145
2.320000000000000 0.6217051323804 104.80731103297 0.7501317739238 19.450537788498 0.7501317739238 19.450537788498 0.6203866473901 111.06855552935
2.340000000000000 0.6456442228515 101.27291760180 0.7298662622816 15.754540291091 0.7298662622816 15.754540291091 0.6443302618451 107.26554505779
2.360000000000000 0.6685212621121 97.781301471347 0.7092702496286 12.110530882656 0.7092702496286 12.110530882656 0.6672144176069 103.52026507352
2.380000000000000 0.6902894768430 94.337853521949 0.6884611525980 8.5230348343916 0.6884611525980 8.5230348343916 0.6889922193401 99.836727547993
2.400000000000000 0.7109196132443 90.947173116692 0.6675524378921 4.9958984793979 0.6675524378921 4.9958984793979 0.7096342384779 96.218334205751
2.420000000000000 0.7303987067145 87.613075697957 0.6466514162554 1.5322790173311 0.6466514162554 1.5322790173311 0.7291272943391 92.667855543515
2.440000000000000 0.7487284744508 84.338617033990 0.6258575009465 -1.865345710716 0.6258575009465 -1.865345710716 0.7474728580828 89.187431791810
2.460000000000000 0.7659234625459 81.126131710541 0.6052609467231 -5.195150585451 0.6052609467231 -5.195150585451 0.7646852107025 85.778592296250
2.480000000000000 0.7820090708858 77.977282897111 0.5849420526382 -8.455923219817 0.5849420526382 -8.455923219817 0.7807894780703 82.442289492432
2.500000000000000 0.7970195629646 74.893120213957 0.5649707870485 -11.64701420664 0.5649707870485 -11.64701420664 0.7958196499318 79.178943640016
2.520000000000000 0.8109961469955 71.874142610301 0.5454067767646 -14.76828101713 0.5454067767646 -14.76828101713 0.8098166691074 75.988494712217
2.540000000000000 0.8239851924440 68.920363453871 0.5262995937549 -17.82002860465 0.5262995937549 -17.82002860465 0.8228266549704 72.870458237537
2.560000000000000 0.8360366246934 66.031375447925 0.5076892709922 -20.80294929869 0.5076892709922 -20.80294929869 0.8348993039226 69.823982391229
2.580000000000000 0.8472025215945 63.206413465859 0.4896069823052 -23.71806405925 0.4896069823052 -23.71806405925 0.8460864906753 66.847904173110
2.600000000000000 0.8575359200242 60.444413872151 0.4720758278143 -26.56666665127 0.4720758278143 -26.56666665127 0.8564410785457 63.940803037585
2.620000000000000 0.8670898285754 57.744069344108 0.4551116751739 -29.35027182823 0.4551116751739 -29.35027182823 0.8660159349960 61.101050826886
2.640000000000000 0.8759164339740 55.103878598706 0.4387240162155 -32.07056820462 0.4387240162155 -32.07056820462 0.8748631401240 58.326857279428
2.660000000000000 0.8840664833636 52.522190751723 0.4229168077650 -34.72937615865 0.4229168077650 -34.72937615865 0.8830333703536 55.616310732660
2.680000000000000 0.8915888216628 49.997244290387 0.4076892738194 -37.32861084062 0.4076892738194 -37.32861084062 0.8905754366328 52.967413913272
2.700000000000000 0.8985296449265 47.527200367361 0.3930363537779 -39.87026151449 0.3930363537779 -39.87026151449 0.8975358466971 50.378049420281
2.720000000000000 0.9049326383908 45.110173946464 0.3789496308708 -42.35635256599 0.3789496308708 -42.35635256599 0.9039585718044 47.846059410935
2.740000000000000 0.9108393082061 42.744258048286 0.3654182804045 -44.78890897640 0.3654182804045 -44.78890897640 0.9098850751266 45.369339879786
2.760000000000000 0.9162885465971 40.427542645856 0.3524293455563 -47.16994876188 0.3524293455563 -47.16994876188 0.9153542083812 42.945799775525
