<Qucs Dataset 1.0.7>
<indep J34 1>
  +1.00589490165547915806e-02
</indep>
<indep Z34 1>
  +9.94139644563485234130e+01
</indep>
<indep Z23 1>
  +2.45463156458065071774e+02
</indep>
<indep Z3 1>
  +1.97662726578562541135e+02
</indep>
<indep Y3 1>
  +5.05912276588243049052e-03
</indep>
<indep J23 1>
  +4.07393115296649389184e-03
</indep>
<indep b3 1>
  +3.18309886183790677339e-02
</indep>
<indep C3 1>
  +1.01321183642337779463e-11
</indep>
<indep L3 1>
  +1.00000000000000002092e-08
</indep>
<indep Z12 1>
  +2.45463156458065071774e+02
</indep>
<indep Z2 1>
  +3.04823080311041110235e+02
</indep>
<indep Y2 1>
  +3.28059147942341223017e-03
</indep>
<indep J12 1>
  +4.07393115296649389184e-03
</indep>
<indep b2 1>
  +3.18309886183790677339e-02
</indep>
<indep C2 1>
  +1.01321183642337779463e-11
</indep>
<indep L2 1>
  +1.00000000000000002092e-08
</indep>
<indep Z01 1>
  +9.94139644563485234130e+01
</indep>
<indep Z1 1>
  +1.97662726578562541135e+02
</indep>
<indep Y1 1>
  +5.05912276588243049052e-03
</indep>
<indep J01 1>
  +1.00589490165547915806e-02
</indep>
<indep b1 1>
  +3.18309886183790677339e-02
</indep>
<indep C1 1>
  +1.01321183642337779463e-11
</indep>
<indep L1 1>
  +1.00000000000000002092e-08
</indep>
<indep lambda4 1>
  +1.49896228999999991949e-01
</indep>
<indep GB 1>
  +2.00000000000000004163e-02
</indep>
<indep GA 1>
  +2.00000000000000004163e-02
</indep>
<indep RL 1>
  +5.00000000000000000000e+01
</indep>
<indep RS 1>
  +5.00000000000000000000e+01
</indep>
<indep c0 1>
  +2.99792458000000000000e+08
</indep>
<indep frequency 81>
  +3.00000000000000000000e+08
  +3.05000000000000000000e+08
  +3.10000000000000000000e+08
  +3.15000000000000000000e+08
  +3.20000000000000000000e+08
  +3.25000000000000000000e+08
  +3.30000000000000000000e+08
  +3.35000000000000000000e+08
  +3.40000000000000000000e+08
  +3.45000000000000000000e+08
  +3.50000000000000000000e+08
  +3.55000000000000000000e+08
  +3.60000000000000000000e+08
  +3.65000000000000000000e+08
  +3.70000000000000000000e+08
  +3.75000000000000000000e+08
  +3.80000000000000000000e+08
  +3.85000000000000000000e+08
  +3.90000000000000000000e+08
  +3.95000000000000000000e+08
  +4.00000000000000000000e+08
  +4.05000000000000000000e+08
  +4.10000000000000000000e+08
  +4.15000000000000000000e+08
  +4.20000000000000000000e+08
  +4.25000000000000000000e+08
  +4.30000000000000000000e+08
  +4.35000000000000000000e+08
  +4.40000000000000000000e+08
  +4.45000000000000000000e+08
  +4.50000000000000000000e+08
  +4.55000000000000000000e+08
  +4.60000000000000000000e+08
  +4.65000000000000000000e+08
  +4.70000000000000000000e+08
  +4.75000000000000000000e+08
  +4.80000000000000000000e+08
  +4.85000000000000000000e+08
  +4.90000000000000000000e+08
  +4.95000000000000000000e+08
  +5.00000000000000000000e+08
  +5.05000000000000000000e+08
  +5.10000000000000000000e+08
  +5.15000000000000000000e+08
  +5.20000000000000000000e+08
  +5.25000000000000000000e+08
  +5.30000000000000000000e+08
  +5.35000000000000000000e+08
  +5.40000000000000000000e+08
  +5.45000000000000000000e+08
  +5.50000000000000000000e+08
  +5.55000000000000000000e+08
  +5.60000000000000000000e+08
  +5.65000000000000000000e+08
  +5.70000000000000000000e+08
  +5.75000000000000000000e+08
  +5.80000000000000000000e+08
  +5.85000000000000000000e+08
  +5.90000000000000000000e+08
  +5.95000000000000000000e+08
  +6.00000000000000000000e+08
  +6.05000000000000000000e+08
  +6.10000000000000000000e+08
  +6.15000000000000000000e+08
  +6.20000000000000000000e+08
  +6.25000000000000000000e+08
  +6.30000000000000000000e+08
  +6.35000000000000000000e+08
  +6.40000000000000000000e+08
  +6.45000000000000000000e+08
  +6.50000000000000000000e+08
  +6.55000000000000000000e+08
  +6.60000000000000000000e+08
  +6.65000000000000000000e+08
  +6.70000000000000000000e+08
  +6.75000000000000000000e+08
  +6.80000000000000000000e+08
  +6.85000000000000000000e+08
  +6.90000000000000000000e+08
  +6.95000000000000000000e+08
  +7.00000000000000000000e+08
</indep>
<dep S22_dB frequency>
  -4.60210599543332747885e+01
  -4.54396469907839346547e+01
  -4.48367657371307259950e+01
  -4.42114117415496394869e+01
  -4.35625045965698376449e+01
  -4.28888782595808848441e+01
  -4.21892700091786849725e+01
  -4.14623077748601502890e+01
  -4.07064955201598337453e+01
  -3.99201962869638933284e+01
  -3.91016124171052723568e+01
  -3.82487623507402005885e+01
  -3.73594532519654975999e+01
  -3.64312485208986274188e+01
  -3.54614290054234828631e+01
  -3.44469464091159878194e+01
  -3.33843669853732052388e+01
  -3.22698030906017123698e+01
  -3.10988295242485222047e+01
  -2.98663808117685150023e+01
  -2.85666247458904010159e+01
  -2.71928067986442485449e+01
  -2.57370600350520533084e+01
  -2.41901774197189887161e+01
  -2.25413517726830328058e+01
  -2.07779129120555055010e+01
  -1.88851569658772824312e+01
  -1.68465356245709543259e+01
  -1.46449291430847257089e+01
  -1.22669285878002671808e+01
  -9.71510463693241455019e+00
  -7.03976204938737559758e+00
  -4.40650018983428104491e+00
  -2.16842346596994328678e+00
  -7.31298346659644438184e-01
  -1.30337197227590351201e-01
  -2.06399627397015061891e-03
  -1.14596905981901794891e-02
  -1.88755683427690203191e-02
  -7.77023721661002173683e-03
  +5.40023381269837403854e-14
  -7.69152007163168439235e-03
  -1.88839935101398556649e-02
  -1.29803239529368615729e-02
  -2.63486442080305635367e-04
  -8.00265575486303615271e-02
  -4.87758922055241406213e-01
  -1.51251326645204375865e+00
  -3.22602733926890872240e+00
  -5.38667976892325928162e+00
  -7.68759022061916219570e+00
  -9.93792312555497225901e+00
  -1.20569546755591527898e+01
  -1.40224680584407117578e+01
  -1.58369040925045112544e+01
  -1.75114422370735240975e+01
  -1.90593819490149840590e+01
  -2.04936045583817758597e+01
  -2.18257237020158356700e+01
  -2.30659098436326246429e+01
  -2.42229681508483878360e+01
  -2.53044973070841159313e+01
  -2.63170604331016093624e+01
  -2.72663425818899014530e+01
  -2.81572872048903768416e+01
  -2.89942111623150893251e+01
  -2.97809004522626672440e+01
  -3.05206895215569460333e+01
  -3.12165269472554207653e+01
  -3.18710299381123292051e+01
  -3.24865297086820845607e+01
  -3.30651094071873501434e+01
  -3.36086359585778566839e+01
  -3.41187869200395326175e+01
  -3.45970732323946492670e+01
  -3.50448585795533276155e+01
  -3.54633759315968504211e+01
  -3.58537417382831335999e+01
  -3.62169681530162677063e+01
  -3.65539735979813542599e+01
  -3.68655919255339199481e+01
</dep>
<dep S11_dB frequency>
  -1.08563476969234938736e-04
  -1.24115441927671757514e-04
  -1.42598470553336603706e-04
  -1.64683986466241505777e-04
  -1.91224446629338911026e-04
  -2.23309732220941634280e-04
  -2.62343572005066636051e-04
  -3.10148040121134929183e-04
  -3.69107792969413793689e-04
  -4.42371155112972484942e-04
  -5.34133449460916405471e-04
  -6.50040742735330761941e-04
  -7.97772155438689891879e-04
  -9.87890599460814920404e-04
  -1.23510296543386530535e-03
  -1.56015474323777016824e-03
  -1.99272443029748121124e-03
  -2.57592249663823706640e-03
  -3.37341691937582347643e-03
  -4.48095165612185427489e-03
  -6.04538648771278056687e-03
  -8.29694885235854849570e-03
  -1.16053554430311338386e-02
  -1.65804123144070308937e-02
  -2.42583628369843831707e-02
  -3.64598381674406460395e-02
  -5.65055136494469478770e-02
  -9.07106727918901289964e-02
  -1.51653346884427470131e-01
  -2.65647747420228508286e-01
  -4.90415157944662005729e-01
  -9.56674279688934925403e-01
  -1.95543678059449810291e+00
  -4.05559515389918168182e+00
  -8.09741668161360550471e+00
  -1.52921649533856189862e+01
  -3.32317859808194242532e+01
  -2.57918427762616850885e+01
  -2.36282771080053279888e+01
  -2.74773848770839137501e+01
  -3.03513800253428371434e+02
  -2.75215665283844970190e+01
  -2.36263432634008943012e+01
  -2.52514763446093617461e+01
  -4.21703921239564394341e+01
  -1.73854535936358232107e+01
  -9.73738807007055484632e+00
  -5.31518156398474062030e+00
  -2.80478322021232351346e+00
  -1.48307004603855396851e+00
  -8.10843144629100232024e-01
  -4.64527428912922424331e-01
  -2.79238942084760966011e-01
  -1.75502406242466324482e-01
  -1.14767692467584392357e-01
  -7.77177430186997558748e-02
  -5.42696188843839952276e-02
  -3.89376091412186597918e-02
  -2.86181835307671612878e-02
  -2.14915362467159448689e-02
  -1.64554593261340559307e-02
  -1.28225839781910128101e-02
  -1.01527994849304574465e-02
  -8.15751469876800291980e-03
  -6.64335891633549818075e-03
  -5.47818981025898366771e-03
  -4.57006891876992303592e-03
  -3.85396745811829007436e-03
  -3.28318810492235057391e-03
  -2.82372563214755047112e-03
  -2.45049521846847639939e-03
  -2.14476939908410423399e-03
  -1.89241042798217809495e-03
  -1.68263434131497207139e-03
  -1.50713564945345818505e-03
  -1.35945997151465294145e-03
  -1.23454931872367910939e-03
  -1.12840903987639442664e-03
  -1.03786146692991742245e-03
  -9.60362002954912551134e-04
  -8.93860633645341177110e-04
</dep>
<dep S[1,1] frequency>
  +9.31693789564635888034e-01+j3.63210249214908076354e-01
  +9.41404013732073274845e-01+j3.37238646511440698372e-01
  +9.50427607319362266480e-01+j3.10893115512358764185e-01
  +9.58762139715947925289e-01+j2.84142992658657556060e-01
  +9.66401081366046854626e-01+j2.56953147184200758613e-01
  +9.73333260537533662138e-01+j2.29283549970888178571e-01
  +9.79542193130597760309e-01+j2.01088753692346133839e-01
  +9.85005252256278662770e-01+j1.72317269454049570854e-01
  +9.89692634290091577398e-01+j1.42910821960146705578e-01
  +9.93566064511508528767e-01+j1.12803461453560197048e-01
  +9.96577166831485339316e-01+j8.19205062307290371448e-02
  +9.98665396374431080240e-01+j5.01772844322946054429e-02
  +9.99755397687931202100e-01+j1.74776382057949541959e-02
  +9.99753600403274322872e-01-j1.62878523229907368197e-02
  +9.98543791103946309917e-01-j5.12439724841189658822e-02
  +9.95981293909482978677e-01-j8.75333524749698083101e-02
  +9.91885235464563752572e-01-j1.25319364674508437751e-01
  +9.86028134889078256009e-01-j1.64789456576272086430e-01
  +9.78121700769218005433e-01-j2.06158875946669206680e-01
  +9.67797161214838053134e-01-j2.49674607429443196072e-01
  +9.54577575159858082721e-01-j2.95619044897453109311e-01
  +9.37838163198091101513e-01-j3.44312300549309613373e-01
  +9.16748396800070919355e-01-j3.96110732439318435905e-01
  +8.90185793756210541616e-01-j4.51396444416703179758e-01
  +8.56605115275107964479e-01-j5.10546327972181135380e-01
  +8.13836592753064858030e-01-j5.73855341957624887073e-01
  +7.58771993312759573946e-01-j6.41356735652746867693e-01
  +6.86882037754861674017e-01-j7.12406332440535638995e-01
  +5.91524612418075190767e-01-j7.84717661987797798773e-01
  +4.63203127209181608759e-01-j8.52119934552040714237e-01
  +2.89946898318196533140e-01-j8.99528148330626886597e-01
  +6.38744612835762115566e-02-j8.93427253356886330593e-01
  -1.91846316949260464746e-01-j7.75022552621100868642e-01
  -3.73335471951974473548e-01-j5.03650676788343965029e-01
  -3.47659381807015388510e-01-j1.84680188322395244516e-01
  -1.71664718357903089974e-01-j9.82889366029347094633e-03
  -2.06587419588335485798e-02+j6.95386016850426183500e-03
  +4.04696727286564250647e-02-j3.15819343553573883554e-02
  +3.69627718640289648633e-02-j5.45030494975571183636e-02
  +1.23143848117495124939e-02-j4.04465025272776473875e-02
  -4.44089209850062616169e-16-j4.98047412713214163335e-16
  +1.21618306733263237263e-02+j4.02686038787081132528e-02
  +3.64720184563582794368e-02+j5.48502719174972092064e-02
  +4.23305283813903976409e-02+j3.45325108363810986956e-02
  -7.27006875604174762628e-03-j2.79539894714236902828e-03
  -1.35100201983625600732e-01-j2.44864738859755515232e-03
  -3.03999833008794850819e-01+j1.17547985321596840103e-01
  -3.87707482717335571998e-01+j3.79175397407818526307e-01
  -2.94057900629489998856e-01+j6.61634127419731710162e-01
  -8.55260566719198145336e-02+j8.38687203375578005371e-01
  +1.35143293662797259191e-01+j9.00791854473238506884e-01
  +3.21133619894915844917e-01+j8.91870820766704319738e-01
  +4.66417755989056548316e-01+j8.48634666180932084600e-01
  +5.77931067651081931125e-01+j7.91448287232026537197e-01
  +6.63916325596470624504e-01+j7.30160935877696370966e-01
  +7.31012294296838116558e-01+j6.69242124838804408604e-01
  +7.84068259642524134634e-01+j6.10588792892134524237e-01
  +8.26540189072749398314e-01+j5.54892487057854988386e-01
  +8.60894437258392430934e-01+j5.02287618095521470885e-01
  +8.88911308494046870088e-01+j4.52659144087601772455e-01
  +9.11895289598792291308e-01+j4.05789527356556489757e-01
  +9.30817380554621820465e-01+j3.61428899444505846716e-01
  +9.46411438854885656013e-01+j3.19327966803086560343e-01
  +9.59240010867468129163e-01+j2.79252622813345008357e-01
  +9.69739922526733799657e-01+j2.40989547732503139876e-01
  +9.78254326793690287545e-01+j2.04347418678102077383e-01
  +9.85055573891253422047e-01+j1.69156059778373168978e-01
  +9.90361773499508046825e-01+j1.35264712397060365978e-01
  +9.94348956993539201399e-01+j1.02540018575521335586e-01
  +9.97160125971927158162e-01+j7.08640080900854729684e-02
  +9.98912066445771795742e-01+j4.01322225973424762113e-02
  +9.99700538367981339505e-01+j1.02520293931213368754e-02
  +9.99604268988757982406e-01-j1.88588636396128939143e-02
  +9.98688055124133500229e-01-j4.72737001172128523674e-02
  +9.97005194263570038160e-01-j7.50577911461009217309e-02
  +9.94599404914968454605e-01-j1.02269474938556856336e-01
  +9.91506354464160688522e-01-j1.28960939710477062725e-01
  +9.87754882673923417791e-01-j1.55178928086958767274e-01
  +9.83367987125420173200e-01-j1.80965339264894414795e-01
  +9.78363620947395928873e-01-j2.06357743085364031543e-01
  +9.72755341395358463785e-01-j2.31389818162026722481e-01
</dep>
<dep S[1,2] frequency>
  +1.81597776040945987734e-03-j4.65828044505402823899e-03
  +1.80285664037234828055e-03-j5.03268677830039437571e-03
  +1.78147588587871156217e-03-j5.44612852208860385300e-03
  +1.74974434003744927849e-03-j5.90402955819315303221e-03
  +1.70505452935383822535e-03-j6.41271204113483435372e-03
  +1.64414512745837486894e-03-j6.97957240242113793882e-03
  +1.56292234094059802850e-03-j7.61329686233978581572e-03
  +1.45622647607388227414e-03-j8.32412637428618304436e-03
  +1.31752479308577569346e-03-j9.12418363652823562193e-03
  +1.13850444538430130639e-03-j1.00278782818648218994e-02
  +9.08528830065461921392e-04-j1.10524107956710259532e-02
  +6.13905519894340670310e-04-j1.22184013403312096563e-02
  +2.36891768987457918124e-04-j1.35506766946662422779e-02
  -2.45669245225344217310e-04-j1.50792570777239197388e-02
  -8.64237474941060342809e-04-j1.68405945676679720535e-02
  -1.65922105172907241762e-03-j1.88791253077565980567e-02
  -2.68472292601540330967e-03-j2.12492062862299942172e-02
  -4.01391399893351406153e-03-j2.40175082569172686220e-02
  -5.74684167140896567938e-03-j2.72659157840191637701e-02
  -8.02193950740953329315e-03-j3.10949133459719855022e-02
  -1.10332495598308433227e-02-j3.56272465957338246856e-02
  -1.50566046022817968258e-02-j4.10111935637384253384e-02
  -2.04900904532874898745e-02-j4.74217334573667145814e-02
  -2.79176130537978489654e-02-j5.50555123848779567886e-02
  -3.82103034293148208222e-02-j6.41100319020382614088e-02
  -5.26901912699311650301e-02-j7.47247652837818299165e-02
  -7.33951035480591429394e-02-j8.68317831914212495681e-02
  -1.03499088149845985818e-01-j9.97908936752323755259e-02
  -1.47927745279387928834e-01-j1.11508771155491570592e-01
  -2.14011289259877057756e-01-j1.16334208863868387995e-01
  -3.11014247217360928488e-01-j1.00249910445601247977e-01
  -4.43511420725105187657e-01-j3.17082929421387618718e-02
  -5.84468580912043345066e-01+j1.44677266798657444546e-01
  -6.25875579142550542144e-01+j4.63935750493569609709e-01
  -4.31247137622205123364e-01+j8.11820231686436910579e-01
  -5.63113610279175683115e-02+j9.83495626802532774136e-01
  +3.18942249266753741210e-01+j9.47523457146100755999e-01
  +6.14409441495256336552e-01+j7.87315581716181323024e-01
  +8.25830425280576374547e-01+j5.60060068003870870079e-01
  +9.55788290114515937113e-01+j2.91000310721473698372e-01
  +1.00000000000000621725e+00+j2.84024327762499696418e-15
  +9.56445709259584386785e-01-j2.88863522541823514178e-01
  +8.30905719460522496078e-01-j5.52500610776211376063e-01
  +6.31179605752717698408e-01-j7.73710499698778142452e-01
  +3.58880803955303584463e-01-j9.33350898857127520003e-01
  +1.79555040792347166134e-02-j9.90666209892729021647e-01
  -3.40954673284926512711e-01-j8.81768951280685775451e-01
  -5.87453594490552011287e-01-j6.00672290159734778570e-01
  -6.30312169678302836040e-01-j2.80137111547806905154e-01
  -5.35081000556525077094e-01-j5.45654778008690943825e-02
  -4.08119265677165332651e-01+j6.12289970174130435132e-02
  -2.99662342796961911340e-01+j1.07898644790118430903e-01
  -2.18693050132022170917e-01+j1.20195798920182353453e-01
  -1.60721605092369074219e-01+j1.17362069416415762402e-01
  -1.19484556022472918069e-01+j1.08644195412356245334e-01
  -8.99284368945614809299e-02+j9.82287135506539899055e-02
  -6.84688781722631728544e-02+j8.79221413382312855234e-02
  -5.26593503863430831280e-02+j7.84387434321814347449e-02
  -4.08410779809037782773e-02+j6.99994496752855827060e-02
  -3.18823542164879611405e-02+j6.26091079228576208315e-02
  -2.50020258557194959004e-02+j5.61848644955909096166e-02
  -1.96534654295879192276e-02+j5.06151755936123104451e-02
  -1.54486869974157243340e-02+j4.57861997995902270109e-02
  -1.21084347964601473507e-02+j4.15927879521048662892e-02
  -9.42900821988352372260e-03+j3.79422501377661147703e-02
  -7.25993123987601560176e-03+j3.47548268217704667271e-02
  -5.48871955581644189320e-03+j3.19627555706059399143e-02
  -4.03034975274917540294e-03+j2.95088368445959280117e-02
  -2.81988374329682559005e-03+j2.73449185785468000531e-02
  -1.80723821709418927019e-03+j2.54304820851792220959e-02
  -9.53430963179441705660e-04+j2.37313966684227252435e-02
  -2.27856598990171206132e-04+j2.22188559890447792644e-02
  +3.93711719880788645499e-04+j2.08684851571402166237e-02
  +9.30602857245011729978e-04+j1.96595983663357468108e-02
  +1.39835511293186134235e-03+j1.85745848596100895933e-02
  +1.80955201076646657321e-03+j1.75984022031236662931e-02
  +2.17445848242646096529e-03+j1.67181582864131782207e-02
  +2.50150906572688472296e-03+j1.59227662169454421692e-02
  +2.79768546651794043981e-03+j1.52026589013969665870e-02
  +3.06881075544872044744e-03+j1.45495524316775082935e-02
  +3.31978028547544583987e-03+j1.39562493743521764261e-02
</dep>
<dep S[2,1] frequency>
  +1.81597776040945987734e-03-j4.65828044505402823899e-03
  +1.80285664037234828055e-03-j5.03268677830039437571e-03
  +1.78147588587871156217e-03-j5.44612852208860385300e-03
  +1.74974434003744927849e-03-j5.90402955819315303221e-03
  +1.70505452935383822535e-03-j6.41271204113483435372e-03
  +1.64414512745837486894e-03-j6.97957240242113793882e-03
  +1.56292234094059802850e-03-j7.61329686233978581572e-03
  +1.45622647607388227414e-03-j8.32412637428618304436e-03
  +1.31752479308577569346e-03-j9.12418363652823562193e-03
  +1.13850444538430130639e-03-j1.00278782818648218994e-02
  +9.08528830065461921392e-04-j1.10524107956710259532e-02
  +6.13905519894340670310e-04-j1.22184013403312096563e-02
  +2.36891768987457918124e-04-j1.35506766946662422779e-02
  -2.45669245225344217310e-04-j1.50792570777239197388e-02
  -8.64237474941060342809e-04-j1.68405945676679720535e-02
  -1.65922105172907241762e-03-j1.88791253077565980567e-02
  -2.68472292601540330967e-03-j2.12492062862299942172e-02
  -4.01391399893351406153e-03-j2.40175082569172686220e-02
  -5.74684167140896567938e-03-j2.72659157840191637701e-02
  -8.02193950740953329315e-03-j3.10949133459719855022e-02
  -1.10332495598308433227e-02-j3.56272465957338246856e-02
  -1.50566046022817968258e-02-j4.10111935637384253384e-02
  -2.04900904532874898745e-02-j4.74217334573667145814e-02
  -2.79176130537978489654e-02-j5.50555123848779567886e-02
  -3.82103034293148208222e-02-j6.41100319020382614088e-02
  -5.26901912699311650301e-02-j7.47247652837818299165e-02
  -7.33951035480591429394e-02-j8.68317831914212495681e-02
