!Murata Part Number: GRM033R61E101KA01
!These Parameters are Measured in Series Mode Connection
!       o--ll--o
!Port1            Port2
!       o------o
!Operation Temp=25[degC], DC Bias Voltage=0[V]
!Freq. Start=100[Hz] Stop=6[GHz], 401[Steps]
!Data Generated on Aug 1, 2022
# Hz S RI R 50
!Freq.(Hz) S11(Real) S11(Imag) S21(Real) S21(Imag) S12(Real) S12(Imag) S22(Real) S22(Imag)
100.0 0.999999919862874 -6.510135031492217E-6 8.013712600897073E-8 6.510135031492217E-6 8.013712600897073E-8 6.510135031492217E-6 0.999999919862874 -6.510135031492217E-6
104.57921513303334 0.9999999176558628 -6.805611023037629E-6 8.234413711216792E-8 6.805611023037629E-6 8.234413711216792E-8 6.805611023037629E-6 0.9999999176558628 -6.805611023037629E-6
109.3681223784127 0.9999999154476332 -7.114601978813507E-6 8.455236688336893E-8 7.114601978813507E-6 8.455236688336893E-8 7.114601978813507E-6 0.9999999154476332 -7.114601978813507E-6
114.3763239890794 0.9999999132338888 -7.4377324978250935E-6 8.676611108255747E-8 7.4377324978250935E-6 8.676611108255747E-8 7.4377324978250935E-6 0.9999999132338888 -7.4377324978250935E-6
119.61386192579457 0.9999999110092926 -7.775655148142558E-6 8.899070742231021E-8 7.775655148142558E-6 8.899070742231021E-8 7.775655148142558E-6 0.9999999110092926 -7.775655148142558E-6
125.09123799230618 0.9999999087674886 -8.129051659502742E-6 9.123251147837751E-8 8.129051659502742E-6 9.123251147837751E-8 8.129051659502742E-6 0.9999999087674886 -8.129051659502742E-6
130.8194348925486 0.9999999065011338 -8.498634181629956E-6 9.349886612475032E-8 8.498634181629956E-6 9.349886612475032E-8 8.498634181629956E-6 0.9999999065011338 -8.498634181629956E-6
136.8099382520969 0.9999999042019339 -8.885146610679787E-6 9.579806622020506E-8 8.885146610679787E-6 9.579806622020506E-8 8.885146610679787E-6 0.9999999042019339 -8.885146610679787E-6
143.0747596480305 0.99999990186068 -9.289365985961696E-6 9.813931997567237E-8 9.289365985961696E-6 9.813931997567237E-8 9.289365985961696E-6 0.99999990186068 -9.289365985961696E-6
149.6264606933842 0.999999899467292 -9.712103958951622E-6 1.0053270807152398E-7 9.712103958951622E-6 1.0053270807152398E-7 9.712103958951622E-6 0.999999899467292 -9.712103958951622E-6
156.47817822447783 0.9999998970108588 -1.015420833656922E-5 1.0298914119600192E-7 1.015420833656922E-5 1.0298914119600192E-7 1.015420833656922E-5 0.9999998970108588 -1.015420833656922E-5
163.643650641628 0.9999998944796837 -1.0616564700765893E-5 1.0552031626302647E-7 1.0616564700765893E-5 1.0552031626302647E-7 1.0616564700765893E-5 0.9999998944796837 -1.0616564700765893E-5
171.13724545605763 0.9999998918613289 -1.1100098106644504E-5 1.0813867115889036E-7 1.1100098106644504E-5 1.0813867115889036E-7 1.1100098106644504E-5 0.9999998918613289 -1.1100098106644504E-5
178.97398809823787 0.9999998891426626 -1.1605774861604183E-5 1.1085733747910786E-7 1.1605774861604183E-5 1.1085733747910786E-7 1.1605774861604183E-5 0.9999998891426626 -1.1605774861604183E-5
187.1695920454257 0.9999998863099095 -1.2134604388366461E-5 1.1369009036244093E-7 1.2134604388366461E-5 1.1369009036244093E-7 1.2134604388366461E-5 0.9999998863099095 -1.2134604388366461E-5
195.74049032880657 0.9999998833487057 -1.268764117518486E-5 1.1665129422032809E-7 1.268764117518486E-5 1.1665129422032809E-7 1.268764117518486E-5 0.9999998833487057 -1.268764117518486E-5
204.70386848341695 0.9999998802441571 -1.3265986817062636E-5 1.1975584290691205E-7 1.3265986817062636E-5 1.1975584290691205E-7 1.3265986817062636E-5 0.9999998802441571 -1.3265986817062636E-5
214.0776990069143 0.9999998769809073 -1.3870792152394769E-5 1.230190926875526E-7 1.3870792152394769E-5 1.230190926875526E-7 1.3870792152394769E-5 0.9999998769809073 -1.3870792152394769E-5
223.88077739628844 0.9999998735432138 -1.450325950010556E-5 1.2645678625260928E-7 1.450325950010556E-5 1.2645678625260928E-7 1.450325950010556E-5 0.9999998735432138 -1.450325950010556E-5
234.132759834772 0.999999869915034 -1.5164645003062172E-5 1.3008496599976661E-7 1.5164645003062172E-5 1.3008496599976661E-7 1.5164645003062172E-5 0.999999869915034 -1.5164645003062172E-5
244.85420260451448 0.999999866080125 -1.5856261084300127E-5 1.3391987488499293E-7 1.5856261084300127E-5 1.3391987488499293E-7 1.5856261084300127E-5 0.999999866080125 -1.5856261084300127E-5
256.06660330404856 0.9999998620221566 -1.6579479023384894E-5 1.3797784333310794E-7 1.6579479023384894E-5 1.3797784333310794E-7 1.6579479023384894E-5 0.9999998620221566 -1.6579479023384894E-5
267.792443953192 0.999999857724839 -1.733573166103841E-5 1.4227516101820996E-7 1.733573166103841E-5 1.4227516101820996E-7 1.733573166103841E-5 0.999999857724839 -1.733573166103841E-5
280.0552360718164 0.9999998531720672 -1.8126516240958763E-5 1.4682793278556603E-7 1.8126516240958763E-5 1.4682793278556603E-7 1.8126516240958763E-5 0.9999998531720672 -1.8126516240958763E-5
292.87956782286926 0.9999998483480813 -1.8953397398526873E-5 1.516519186014624E-7 1.8953397398526873E-5 1.516519186014624E-7 1.8953397398526873E-5 0.9999998483480813 -1.8953397398526873E-5
306.2911533141767 0.9999998432376418 -1.9818010306791254E-5 1.5676235819299425E-7 1.9818010306791254E-5 1.5676235819299425E-7 1.9818010306791254E-5 0.9999998432376418 -1.9818010306791254E-5
320.3168841578819 0.999999837826218 -2.0722063990709415E-5 1.6217378197582794E-7 2.0722063990709415E-5 1.6217378197582794E-7 2.0722063990709415E-5 0.999999837826218 -2.0722063990709415E-5
334.9848833909005 0.9999998321001891 -2.166734482105478E-5 1.6789981095453986E-7 2.166734482105478E-5 1.6789981095453986E-7 2.166734482105478E-5 0.9999998321001891 -2.166734482105478E-5
350.32456186451077 0.9999998260470506 -2.2655720199621273E-5 1.7395294949412185E-7 2.2655720199621273E-5 1.7395294949412185E-7 2.2655720199621273E-5 0.9999998260470506 -2.2655720199621273E-5
366.36667721614316 0.9999998196556239 -2.3689142447323173E-5 1.8034437616368232E-7 2.3689142447323173E-5 1.8034437616368232E-7 2.3689142447323173E-5 0.9999998196556239 -2.3689142447323173E-5
383.1433955416162 0.9999998129162608 -2.4769652906449645E-5 1.8708373918751365E-7 2.4769652906449645E-5 1.8708373918751365E-7 2.4769652906449645E-5 0.9999998129162608 -2.4769652906449645E-5
400.68835589147574 0.9999998058210356 -2.5899386267655675E-5 1.9417896432926403E-7 2.5899386267655675E-5 1.9417896432926403E-7 2.5899386267655675E-5 0.9999998058210356 -2.5899386267655675E-5
419.03673772076064 0.9999997983639158 -2.7080575131237575E-5 2.0163608418946577E-7 2.7080575131237575E-5 2.0163608418946577E-7 2.7080575131237575E-5 0.9999997983639158 -2.7080575131237575E-5
438.225331427439 0.9999997905409012 -2.831555481085615E-5 2.0945909880904715E-7 2.831555481085615E-5 2.0945909880904715E-7 2.831555481085615E-5 0.9999997905409012 -2.831555481085615E-5
458.2926121209498 0.999999782350122 -2.9606768386173432E-5 2.1764987802863755E-7 2.9606768386173432E-5 2.1764987802863755E-7 2.9606768386173432E-5 0.999999782350122 -2.9606768386173432E-5
479.2788167687661 0.9999997737918839 -3.095677200893232E-5 2.2620811614469854E-7 3.095677200893232E-5 2.2620811614469854E-7 3.095677200893232E-5 0.9999997737918839 -3.095677200893232E-5
501.22602487566456 0.9999997648686509 -3.236824046494338E-5 2.3513134893222652E-7 3.236824046494338E-5 2.3513134893222652E-7 3.236824046494338E-5 0.9999997648686509 -3.236824046494338E-5
524.1782428574726 0.9999997555849579 -3.384397299239644E-5 2.4441504200090164E-7 3.384397299239644E-5 2.4441504200090164E-7 3.384397299239644E-5 0.9999997555849579 -3.384397299239644E-5
548.1814922784702 0.9999997459472424 -3.5386899355062255E-5 2.5405275768894846E-7 3.5386899355062255E-5 2.5405275768894846E-7 3.5386899355062255E-5 0.9999997459472424 -3.5386899355062255E-5
573.2839021293739 0.9999997359635947 -3.700008616748105E-5 2.640364053007644E-7 3.700008616748105E-5 2.640364053007644E-7 3.700008616748105E-5 0.9999997359635947 -3.700008616748105E-5
599.5358053309263 0.9999997256434235 -3.868674346834135E-5 2.743565765444098E-7 3.868674346834135E-5 2.743565765444098E-7 3.868674346834135E-5 0.9999997256434235 -3.868674346834135E-5
626.9898396565933 0.9999997149970353 -4.04502315381023E-5 2.8500296466821315E-7 4.04502315381023E-5 2.8500296466821315E-7 4.04502315381023E-5 0.9999997149970353 -4.04502315381023E-5
655.7010532767296 0.9999997040351378 -4.229406795763209E-5 2.9596486223168513E-7 4.229406795763209E-5 2.9596486223168513E-7 4.229406795763209E-5 0.9999997040351378 -4.229406795763209E-5
685.7270151358366 0.9999996927682713 -4.42219349062867E-5 3.072317289150154E-7 4.42219349062867E-5 3.072317289150154E-7 4.42219349062867E-5 0.9999996927682713 -4.42219349062867E-5
717.1279303842347 0.9999996812061824 -4.623768670042776E-5 3.187938175334647E-7 4.623768670042776E-5 3.187938175334647E-7 4.623768670042776E-5 0.9999996812061824 -4.623768670042776E-5
749.9667610955984 0.9999996693571562 -4.834535757677963E-5 3.306428437310103E-7 4.834535757677963E-5 3.306428437310103E-7 4.834535757677963E-5 0.9999996693571562 -4.834535757677963E-5
784.3093525124082 0.9999996572273171 -5.054916972908472E-5 3.4277268290021574E-7 5.054916972908472E-5 3.4277268290021574E-7 5.054916972908472E-5 0.9999996572273171 -5.054916972908472E-5
820.2245650724522 0.9999996448199232 -5.2853541610997794E-5 3.551800768709797E-7 5.2853541610997794E-5 3.551800768709797E-7 5.2853541610997794E-5 0.9999996448199232 -5.2853541610997794E-5
857.7844124811068 0.9999996321346671 -5.526309652278453E-5 3.6786533290863154E-7 5.526309652278453E-5 3.6786533290863154E-7 5.526309652278453E-5 0.9999996321346671 -5.526309652278453E-5
897.0642061062428 0.9999996191670015 -5.778267150387599E-5 3.808329985514942E-7 5.778267150387599E-5 3.808329985514942E-7 5.778267150387599E-5 0.9999996191670015 -5.778267150387599E-5
938.1427059852851 0.9999996059075023 -6.041732655739835E-5 3.940924977002671E-7 6.041732655739835E-5 3.940924977002671E-7 6.041732655739835E-5 0.9999996059075023 -6.041732655739835E-5
981.102278747212 0.9999995923412841 -6.317235423623103E-5 4.0765871597014695E-7 6.317235423623103E-5 4.0765871597014695E-7 6.317235423623103E-5 0.9999995923412841 -6.317235423623103E-5
1026.0290627661395 0.9999995784474737 -6.605328962278089E-5 4.215525263981566E-7 6.605328962278089E-5 4.215525263981566E-7 6.605328962278089E-5 0.9999995784474737 -6.605328962278089E-5
1073.0131408776467 0.9999995641987501 -6.906592073642561E-5 4.358012498987778E-7 6.906592073642561E-5 4.358012498987778E-7 6.906592073642561E-5 0.9999995641987501 -6.906592073642561E-5
1122.1487210041523 0.9999995495609518 -7.221629940347664E-5 4.504390481136544E-7 7.221629940347664E-5 4.504390481136544E-7 7.221629940347664E-5 0.9999995495609518 -7.221629940347664E-5
1173.5343250515148 0.9999995344927507 -7.551075262462668E-5 4.6550724926170265E-7 7.551075262462668E-5 4.6550724926170265E-7 7.551075262462668E-5 0.9999995344927507 -7.551075262462668E-5
1227.2729864556143 0.99999951894539 -7.89558944743231E-5 4.810546100635849E-7 7.89558944743231E-5 4.810546100635849E-7 7.89558944743231E-5 0.99999951894539 -7.89558944743231E-5
1283.4724567750195 0.9999995028624813 -8.255863856553008E-5 4.971375186448457E-7 8.255863856553008E-5 4.971375186448457E-7 8.255863856553008E-5 0.9999995028624813 -8.255863856553008E-5
1342.245421743976 0.9999994861798556 -8.632621111212198E-5 5.138201444328546E-7 8.632621111212198E-5 5.138201444328546E-7 8.632621111212198E-5 0.9999994861798556 -8.632621111212198E-5
1403.7097272189235 0.9999994688254584 -9.026616461989091E-5 5.311745414320467E-7 9.026616461989091E-5 5.311745414320467E-7 9.026616461989091E-5 0.9999994688254584 -9.026616461989091E-5
1467.9886154715937 0.999999450719289 -9.43863922360572E-5 5.492807109208033E-7 9.43863922360572E-5 5.492807109208033E-7 9.43863922360572E-5 0.999999450719289 -9.43863922360572E-5
1535.2109723024755 0.9999994317733714 -9.869514278640186E-5 5.682266286345137E-7 9.869514278640186E-5 5.682266286345137E-7 9.869514278640186E-5 0.9999994317733714 -9.869514278640186E-5
1605.5115854701387 0.99999941189176 -1.0320103652884262E-4 5.881082399855315E-7 1.0320103652884262E-4 5.881082399855315E-7 1.0320103652884262E-4 0.99999941189176 -1.0320103652884262E-4
1679.0314149545911 0.999999390970575 -1.0791308165254717E-4 6.090294249422137E-7 1.0791308165254717E-4 6.090294249422137E-7 1.0791308165254717E-4 0.999999390970575 -1.0791308165254717E-4
1755.9178755965756 0.999999368898068 -1.1284069155259504E-4 6.311019319743455E-7 1.1284069155259504E-4 6.311019319743455E-7 1.1284069155259504E-4 0.999999368898068 -1.1284069155259504E-4
1836.3251326795319 0.9999993455547219 -1.1799370291180958E-4 6.544452781002716E-7 1.1799370291180958E-4 6.544452781002716E-7 1.1799370291180958E-4 0.9999993455547219 -1.1799370291180958E-4
1920.4144110468878 0.9999993208133903 -1.2338239462370744E-4 6.791866096680894E-7 1.2338239462370744E-4 6.791866096680894E-7 1.2338239462370744E-4 0.9999993208133903 -1.2338239462370744E-4
2008.3543183745 0.9999992945394838 -1.2901750759356374E-4 7.054605161913707E-7 1.2901750759356374E-4 7.054605161913707E-7 1.2901750759356374E-4 0.9999992945394838 -1.2901750759356374E-4
2100.321183246434 0.9999992665912125 -1.3491026545836663E-4 7.334087874584634E-7 1.3491026545836663E-4 7.334087874584634E-7 1.3491026545836663E-4 0.9999992665912125 -1.3491026545836663E-4
2196.4994087119585 0.9999992368198976 -1.4107239627091794E-4 7.631801023629597E-7 1.4107239627091794E-4 7.631801023629597E-7 1.4107239627091794E-4 0.9999992368198976 -1.4107239627091794E-4
2297.0818420326846 0.9999992050703634 -1.475161551985093E-4 7.949296365852038E-7 1.475161551985093E-4 7.949296365852038E-7 1.475161551985093E-4 0.9999992050703634 -1.475161551985093E-4
2402.270161361206 0.9999991711814246 -1.5425434829242254E-4 8.288185755219413E-7 1.5425434829242254E-4 8.288185755219413E-7 1.5425434829242254E-4 0.9999991711814246 -1.5425434829242254E-4
2512.2752801266033 0.9999991349864812 -1.6130035739092658E-4 8.650135188549562E-7 1.6130035739092658E-4 8.650135188549562E-7 1.6130035739092658E-4 0.9999991349864812 -1.6130035739092658E-4
2627.3177699376165 0.9999990963142359 -1.6866816622537482E-4 9.036857640216538E-7 1.6866816622537482E-4 9.036857640216538E-7 1.6866816622537482E-4 0.9999990963142359 -1.6866816622537482E-4
2747.6283028514745 0.9999990549895422 -1.7637238780634506E-4 9.450104577609696E-7 1.7637238780634506E-4 9.450104577609696E-7 1.7637238780634506E-4 0.9999990549895422 -1.7637238780634506E-4
2873.4481138951564 0.9999990108343919 -1.844282931743391E-4 9.8916560801818E-7 1.844282931743391E-4 9.8916560801818E-7 1.844282931743391E-4 0.9999990108343919 -1.844282931743391E-4
3005.0294847665045 0.999998963669047 -1.9285184160716166E-4 1.0363309529542228E-6 1.9285184160716166E-4 1.0363309529542228E-6 1.9285184160716166E-4 0.999998963669047 -1.9285184160716166E-4
3142.6362496850466 0.9999989133133103 -2.016597123834426E-4 1.086686689746008E-6 2.016597123834426E-4 1.086686689746008E-6 2.016597123834426E-4 0.9999989133133103 -2.016597123834426E-4
3286.544324406816 0.9999988595879267 -2.1086933820851743E-4 1.1404120733649028E-6 2.1086933820851743E-4 1.1404120733649028E-6 2.1086933820851743E-4 0.9999988595879267 -2.1086933820851743E-4
3437.0422594639017 0.9999988023160955 -2.2049894041462295E-4 1.1976839045911352E-6 2.2049894041462295E-4 1.1976839045911352E-6 2.2049894041462295E-4 0.9999988023160955 -2.2049894041462295E-4
3594.431818738024 0.9999987413250628 -2.3056756605163993E-4 1.2586749370726442E-6 2.3056756605163993E-4 1.2586749370726442E-6 2.3056756605163993E-4 0.9999987413250628 -2.3056756605163993E-4
3759.0285845282415 0.999998676447755 -2.410951269869222E-4 1.323552245050087E-6 2.410951269869222E-4 1.323552245050087E-6 2.410951269869222E-4 0.999998676447755 -2.410951269869222E-4
3931.162590326006 0.9999986075243938 -2.521024411326051E-4 1.3924756060727487E-6 2.521024411326051E-4 1.3924756060727487E-6 2.521024411326051E-4 0.9999986075243938 -2.521024411326051E-4
4111.17898256636 0.999998534404034 -2.636112759157248E-4 1.4655959660766133E-6 2.636112759157248E-4 1.4655959660766133E-6 2.636112759157248E-4 0.999998534404034 -2.636112759157248E-4
4299.438712682125 0.9999984569459331 -2.756443941001581E-4 1.5430540668599442E-6 2.756443941001581E-4 1.5430540668599442E-6 2.756443941001581E-4 0.9999984569459331 -2.756443941001581E-4
4496.31926084876 0.9999983750206726 -2.882256020596495E-4 1.6249793273798168E-6 2.882256020596495E-4 1.6249793273798168E-6 2.882256020596495E-4 0.9999983750206726 -2.882256020596495E-4
4702.215392871039 0.9999982885109207 -3.0137980058804486E-4 1.7114890793797527E-6 3.0137980058804486E-4 1.7114890793797527E-6 3.0137980058804486E-4 0.9999982885109207 -3.0137980058804486E-4
4917.539951729213 0.9999981973117364 -3.151330383167184E-4 1.8026882635509246E-6 3.151330383167184E-4 1.8026882635509246E-6 3.151330383167184E-4 0.9999981973117364 -3.151330383167184E-4
5142.724685371758 0.9999981013303064 -3.295125677907026E-4 1.8986696936558536E-6 3.295125677907026E-4 1.8986696936558536E-6 3.295125677907026E-4 0.9999981013303064 -3.295125677907026E-4
5378.221112414543 0.9999980004850081 -3.4454690423534485E-4 1.99951499187063E-6 3.4454690423534485E-4 1.99951499187063E-6 3.4454690423534485E-4 0.9999980004850081 -3.4454690423534485E-4
5624.501427482224 0.9999978947037116 -3.602658870257806E-4 2.105296288361548E-6 3.602658870257806E-4 2.105296288361548E-6 3.602658870257806E-4 0.9999978947037116 -3.602658870257806E-4
5882.059448007167 0.9999977839212385 -3.7670074385386674E-4 2.216078761532841E-6 3.7670074385386674E-4 2.216078761532841E-6 3.7670074385386674E-4 0.9999977839212385 -3.7670074385386674E-4
6151.41160438433 0.9999976680759273 -3.938841575732811E-4 2.331924072698324E-6 3.938841575732811E-4 2.331924072698324E-6 3.938841575732811E-4 0.9999976680759273 -3.938841575732811E-4
6433.097975467465 0.999997547105279 -4.118503356951024E-4 2.4528947209535276E-6 4.118503356951024E-4 2.4528947209535276E-6 4.118503356951024E-4 0.999997547105279 -4.118503356951024E-4
6727.683371482931 0.9999974209406879 -4.3063508250498864E-4 2.579059312159274E-6 4.3063508250498864E-4 2.579059312159274E-6 4.3063508250498864E-4 0.9999974209406879 -4.3063508250498864E-4
7035.758466532445 0.9999972895012978 -4.502758737802529E-4 2.7104987021257987E-6 4.502758737802529E-4 2.7104987021257987E-6 4.502758737802529E-4 0.9999972895012978 -4.502758737802529E-4
7357.940982955574 0.9999971526870594 -4.708119341013442E-4 2.847312940635803E-6 4.708119341013442E-4 2.847312940635803E-6 4.708119341013442E-4 0.9999971526870594 -4.708119341013442E-4
7694.876929926739 0.9999970103710875 -4.922843167773397E-4 2.9896289123804503E-6 4.922843167773397E-4 2.9896289123804503E-6 4.922843167773397E-4 0.9999970103710875 -4.922843167773397E-4
8047.241898770236 0.9999968623914542 -5.147359864381346E-4 3.1376085456539423E-6 5.147359864381346E-4 3.1376085456539423E-6 5.147359864381346E-4 0.9999968623914542 -5.147359864381346E-4
8415.742417590522 0.9999967085425581 -5.38211904385436E-4 3.29145744187569E-6 5.38211904385436E-4 3.29145744187569E-6 5.38211904385436E-4 0.9999967085425581 -5.38211904385436E-4
8801.117367933934 0.9999965485662298 -5.62759116838115E-4 3.4514337702170556E-6 5.62759116838115E-4 3.4514337702170556E-6 5.62759116838115E-4 0.9999965485662298 -5.62759116838115E-4
9204.139466322391 0.9999963821427273 -5.884268462523122E-4 3.6178572725672094E-6 5.884268462523122E-4 3.6178572725672094E-6 5.884268462523122E-4 0.9999963821427273 -5.884268462523122E-4
9625.61681362972 0.9999962088817652 -6.152665859400771E-4 3.7911182346758445E-6 6.152665859400771E-4 3.7911182346758445E-6 6.152665859400771E-4 0.9999962088817652 -6.152665859400771E-4
10066.394515407255 0.9999960283137014 -6.433321982496725E-4 3.971686298596174E-6 6.433321982496725E-4 3.971686298596174E-6 6.433321982496725E-4 0.9999960283137014 -6.433321982496725E-4
