!Murata Part Number: GRM0335C1E100JA01
!These Parameters are Measured in Series Mode Connection
!       o--ll--o
!Port1            Port2
!       o------o
!Operation Temp=25[degC], DC Bias Voltage=0[V]
!Freq. Start=100[MHz] Stop=8.5[GHz], 401[Steps]
!Data Generated on Jan 10, 2017
# Hz S RI R 50
!Freq.(Hz) S11(Real) S11(Imag) S21(Real) S21(Imag) S12(Real) S12(Imag) S22(Real) S22(Imag)
1.0E8 0.7162735250118306 -0.45018577500062285 0.2837264749881694 0.45018577500062285 0.2837264749881694 0.45018577500062285 0.7162735250118306 -0.45018577500062285
1.21E8 0.6327803620164582 -0.48129599239434884 0.36721963798354185 0.48129599239434884 0.36721963798354185 0.48129599239434884 0.6327803620164582 -0.48129599239434884
1.42E8 0.555599307813237 -0.4960162923203419 0.44440069218676315 0.4960162923203419 0.44440069218676315 0.4960162923203419 0.555599307813237 -0.4960162923203419
1.63E8 0.4866490676126093 -0.49880651598766196 0.5133509323873906 0.49880651598766196 0.5133509323873906 0.49880651598766196 0.4866490676126093 -0.49880651598766196
1.84E8 0.4263401310392298 -0.49339610144239143 0.5736598689607703 0.49339610144239143 0.5736598689607703 0.49339610144239143 0.4263401310392298 -0.49339610144239143
2.05E8 0.37423772223271984 -0.48264308952319884 0.6257622777672801 0.48264308952319884 0.6257622777672801 0.48264308952319884 0.37423772223271984 -0.48264308952319884
2.26E8 0.32951481987445647 -0.46861969332660186 0.6704851801255435 0.46861969332660186 0.6704851801255435 0.46861969332660186 0.32951481987445647 -0.46861969332660186
2.47E8 0.29122207617560625 -0.4527722926344553 0.7087779238243939 0.4527722926344553 0.7087779238243939 0.4527722926344553 0.29122207617560625 -0.4527722926344553
2.68E8 0.25843092207597207 -0.43608157710454387 0.7415690779240282 0.43608157710454387 0.7415690779240282 0.43608157710454387 0.25843092207597207 -0.43608157710454387
2.89E8 0.23029930174737126 -0.41919551203577016 0.7697006982526288 0.41919551203577016 0.7697006982526288 0.41919551203577016 0.23029930174737126 -0.41919551203577016
3.1E8 0.20609430083356356 -0.40253040854841987 0.7939056991664365 0.40253040854841987 0.7939056991664365 0.40253040854841987 0.20609430083356356 -0.40253040854841987
3.31E8 0.18519274751950984 -0.3863441197163631 0.8148072524804901 0.3863441197163631 0.8148072524804901 0.3863441197163631 0.18519274751950984 -0.3863441197163631
3.52E8 0.16707179401700908 -0.37078756972900717 0.832928205982991 0.37078756972900717 0.832928205982991 0.37078756972900717 0.16707179401700908 -0.37078756972900717
3.73E8 0.15129590221028974 -0.3559404119471888 0.8487040977897101 0.3559404119471888 0.8487040977897101 0.3559404119471888 0.15129590221028974 -0.3559404119471888
3.94E8 0.137503444179452 -0.3418354393119636 0.8624965558205481 0.3418354393119636 0.8624965558205481 0.3418354393119636 0.137503444179452 -0.3418354393119636
4.15E8 0.12539436931346115 -0.32847517402819265 0.874605630686539 0.32847517402819265 0.874605630686539 0.32847517402819265 0.12539436931346115 -0.32847517402819265
4.36E8 0.11471947061597246 -0.31584307875365797 0.8852805293840276 0.31584307875365797 0.8852805293840276 0.31584307875365797 0.11471947061597246 -0.31584307875365797
4.57E8 0.10527132920011789 -0.30391109182365644 0.8947286707998819 0.30391109182365644 0.8947286707998819 0.30391109182365644 0.10527132920011789 -0.30391109182365644
4.78E8 0.09687681151140361 -0.2926446587927067 0.9031231884885963 0.2926446587927067 0.9031231884885963 0.2926446587927067 0.09687681151140361 -0.2926446587927067
4.99E8 0.08939091781909377 -0.28200606215802315 0.9106090821809063 0.28200606215802315 0.9106090821809063 0.28200606215802315 0.08939091781909377 -0.28200606215802315
5.2E8 0.08269176747288196 -0.27195659606083744 0.9173082325271181 0.27195659606083744 0.9173082325271181 0.27195659606083744 0.08269176747288196 -0.27195659606083744
5.41E8 0.07667652171421735 -0.26245795845928377 0.9233234782857827 0.26245795845928377 0.9233234782857827 0.26245795845928377 0.07667652171421735 -0.26245795845928377
5.62E8 0.07125807074189115 -0.2534731145726324 0.9287419292581088 0.2534731145726324 0.9287419292581088 0.2534731145726324 0.07125807074189115 -0.2534731145726324
5.83E8 0.06636233960808237 -0.24496680464431903 0.9336376603919176 0.24496680464431903 0.9336376603919176 0.24496680464431903 0.06636233960808237 -0.24496680464431903
6.04E8 0.06192609347220012 -0.23690581409516964 0.9380739065277998 0.23690581409516964 0.9380739065277998 0.23690581409516964 0.06192609347220012 -0.23690581409516964
6.25E8 0.057895145300436 -0.22925908665102296 0.9421048546995637 0.22925908665102296 0.9421048546995637 0.22925908665102296 0.057895145300436 -0.22925908665102296
6.46E8 0.054222887986521626 -0.22199773541500376 0.9457771120134782 0.22199773541500376 0.9457771120134782 0.22199773541500376 0.054222887986521626 -0.22199773541500376
6.67E8 0.05086908833327492 -0.21509498931622573 0.9491309116667251 0.21509498931622573 0.9491309116667251 0.21509498931622573 0.05086908833327492 -0.21509498931622573
6.88E8 0.0477988928252744 -0.2085261003345738 0.9522011071747256 0.2085261003345738 0.9522011071747256 0.2085261003345738 0.0477988928252744 -0.2085261003345738
7.09E8 0.044982005130001994 -0.2022682286345226 0.9550179948699982 0.2022682286345226 0.9550179948699982 0.2022682286345226 0.044982005130001994 -0.2022682286345226
7.3E8 0.04239200324445581 -0.19630031705688375 0.9576079967555441 0.19630031705688375 0.9576079967555441 0.19630031705688375 0.04239200324445581 -0.19630031705688375
7.51E8 0.04000577055248544 -0.19060296250980863 0.9599942294475144 0.19060296250980863 0.9599942294475144 0.19060296250980863 0.04000577055248544 -0.19060296250980863
7.72E8 0.03780302010495877 -0.185158289117947 0.9621969798950414 0.185158289117947 0.9621969798950414 0.185158289117947 0.03780302010495877 -0.185158289117947
7.93E8 0.035765895448965704 -0.1799498261530091 0.9642341045510342 0.1799498261530091 0.9642341045510342 0.1799498261530091 0.035765895448965704 -0.1799498261530091
8.14E8 0.0338786345290357 -0.1749623925194626 0.9661213654709643 0.1749623925194626 0.9661213654709643 0.1749623925194626 0.0338786345290357 -0.1749623925194626
8.35E8 0.03212728573399958 -0.17018198872565618 0.9678727142660005 0.17018198872565618 0.9678727142660005 0.17018198872565618 0.03212728573399958 -0.17018198872565618
8.56E8 0.03049946720295323 -0.16559569670851448 0.9695005327970466 0.16559569670851448 0.9695005327970466 0.16559569670851448 0.03049946720295323 -0.16559569670851448
8.77E8 0.028984162139343943 -0.16119158751235155 0.9710158378606558 0.16119158751235155 0.9710158378606558 0.16119158751235155 0.028984162139343943 -0.16119158751235155
8.98E8 0.027571544197340717 -0.1569586365889776 0.9724284558026594 0.1569586365889776 0.9724284558026594 0.1569586365889776 0.027571544197340717 -0.1569586365889776
9.19E8 0.026252828065280228 -0.15288664634499163 0.9737471719347197 0.15288664634499163 0.9737471719347197 0.15288664634499163 0.026252828065280228 -0.15288664634499163
9.4E8 0.02502014122899175 -0.14896617548362054 0.9749798587710082 0.14896617548362054 0.9749798587710082 0.14896617548362054 0.02502014122899175 -0.14896617548362054
9.61E8 0.023866413594072357 -0.14518847465218387 0.9761335864059278 0.14518847465218387 0.9761335864059278 0.14518847465218387 0.023866413594072357 -0.14518847465218387
9.82E8 0.022785282212985238 -0.141545427897966 0.9772147177870147 0.141545427897966 0.9772147177870147 0.141545427897966 0.022785282212985238 -0.141545427897966
1.003E9 0.02177100882571956 -0.1380294994450487 0.9782289911742802 0.1380294994450487 0.9782289911742802 0.1380294994450487 0.02177100882571956 -0.1380294994450487
1.024E9 0.020818408301930148 -0.13463368532564468 0.97918159169807 0.13463368532564468 0.97918159169807 0.13463368532564468 0.020818408301930148 -0.13463368532564468
1.045E9 0.019922786384066683 -0.13135146942696363 0.9800772136159331 0.13135146942696363 0.9800772136159331 0.13135146942696363 0.019922786384066683 -0.13135146942696363
1.066E9 0.01907988538784493 -0.1281767835454453 0.9809201146121551 0.1281767835454453 0.9809201146121551 0.1281767835454453 0.01907988538784493 -0.1281767835454453
1.087E9 0.01828583672876594 -0.1251039710721539 0.981714163271234 0.1251039710721539 0.981714163271234 0.1251039710721539 0.01828583672876594 -0.1251039710721539
1.108E9 0.017537119319487145 -0.12212775396485694 0.9824628806805129 0.12212775396485694 0.9824628806805129 0.12212775396485694 0.017537119319487145 -0.12212775396485694
1.129E9 0.01683052302930715 -0.11924320269290299 0.9831694769706927 0.11924320269290299 0.9831694769706927 0.11924320269290299 0.01683052302930715 -0.11924320269290299
1.15E9 0.0161631165191842 -0.1164457088699498 0.9838368834808157 0.1164457088699498 0.9838368834808157 0.1164457088699498 0.0161631165191842 -0.1164457088699498
1.171E9 0.015532218867884138 -0.11373096031657239 0.9844677811321159 0.11373096031657239 0.9844677811321159 0.11373096031657239 0.015532218867884138 -0.11373096031657239
1.192E9 0.01493537449055185 -0.11109491831968979 0.9850646255094482 0.11109491831968979 0.9850646255094482 0.11109491831968979 0.01493537449055185 -0.11109491831968979
1.213E9 0.014370330923070286 -0.10853379687856238 0.9856296690769298 0.10853379687856238 0.9856296690769298 0.10853379687856238 0.014370330923070286 -0.10853379687856238
1.234E9 0.013835019106340418 -0.10604404374789132 0.9861649808936596 0.10604404374789132 0.9861649808936596 0.10604404374789132 0.013835019106340418 -0.10604404374789132
1.255E9 0.013327535855987265 -0.10362232310739623 0.9866724641440128 0.10362232310739623 0.9866724641440128 0.10362232310739623 0.013327535855987265 -0.10362232310739623
1.276E9 0.01284612824653286 -0.10126549970427601 0.9871538717534671 0.10126549970427601 0.9871538717534671 0.10126549970427601 0.01284612824653286 -0.10126549970427601
1.297E9 0.012389179676063101 -0.09897062433031294 0.9876108203239367 0.09897062433031294 0.9876108203239367 0.09897062433031294 0.012389179676063101 -0.09897062433031294
1.318E9 0.011955197408911215 -0.09673492050919394 0.988044802591089 0.09673492050919394 0.988044802591089 0.09673492050919394 0.011955197408911215 -0.09673492050919394
1.339E9 0.011542801420764328 -0.09455577228203839 0.9884571985792355 0.09455577228203839 0.9884571985792355 0.09455577228203839 0.011542801420764328 -0.09455577228203839
1.36E9 0.011150714393597964 -0.09243071299026577 0.9888492856064023 0.09243071299026577 0.9888492856064023 0.09243071299026577 0.011150714393597964 -0.09243071299026577
1.381E9 0.010777752727561962 -0.09035741496493226 0.989222247272438 0.09035741496493226 0.989222247272438 0.09035741496493226 0.010777752727561962 -0.09035741496493226
1.402E9 0.010422818453884389 -0.08833368004063323 0.9895771815461155 0.08833368004063323 0.9895771815461155 0.08833368004063323 0.010422818453884389 -0.08833368004063323
1.423E9 0.010084891947448561 -0.0863574308201044 0.9899151080525517 0.0863574308201044 0.9899151080525517 0.0863574308201044 0.010084891947448561 -0.0863574308201044
1.444E9 0.009763025350285635 -0.08442670262286113 0.990236974649714 0.08442670262286113 0.990236974649714 0.08442670262286113 0.009763025350285635 -0.08442670262286113
1.465E9 0.009456336628107827 -0.08253963605767979 0.9905436633718924 0.08253963605767979 0.9905436633718924 0.08253963605767979 0.009456336628107827 -0.08253963605767979
1.486E9 0.009164004191433834 -0.08069447016451853 0.9908359958085663 0.08069447016451853 0.9908359958085663 0.08069447016451853 0.009164004191433834 -0.08069447016451853
1.507E9 0.008885262021039796 -0.07888953607667933 0.9911147379789601 0.07888953607667933 0.9911147379789601 0.07888953607667933 0.008885262021039796 -0.07888953607667933
1.528E9 0.008619395244582686 -0.07712325115867916 0.9913806047554173 0.07712325115867916 0.9913806047554173 0.07712325115867916 0.008619395244582686 -0.07712325115867916
1.549E9 0.008365736117440263 -0.07539411357949422 0.9916342638825598 0.07539411357949422 0.9916342638825598 0.07539411357949422 0.008365736117440263 -0.07539411357949422
1.57E9 0.008123660366219199 -0.07370069728460905 0.9918763396337809 0.07370069728460905 0.9918763396337809 0.07370069728460905 0.008123660366219199 -0.07370069728460905
1.591E9 0.007892583858110161 -0.07204164733369142 0.99210741614189 0.07204164733369142 0.99210741614189 0.07204164733369142 0.007892583858110161 -0.07204164733369142
1.612E9 0.0076719595634081586 -0.07041567557376482 0.9923280404365917 0.07041567557376482 0.9923280404365917 0.07041567557376482 0.0076719595634081586 -0.07041567557376482
1.633E9 0.007461274782146809 -0.06882155662049647 0.9925387252178532 0.06882155662049647 0.9925387252178532 0.06882155662049647 0.007461274782146809 -0.06882155662049647
1.654E9 0.007260048608984667 -0.06725812412269308 0.9927399513910153 0.06725812412269308 0.9927399513910153 0.06725812412269308 0.007260048608984667 -0.06725812412269308
1.675E9 0.007067829613288434 -0.06572426728733143 0.9929321703867117 0.06572426728733143 0.9929321703867117 0.06572426728733143 0.007067829613288434 -0.06572426728733143
1.696E9 0.006884193713830665 -0.06421892764446209 0.9931158062861692 0.06421892764446209 0.9931158062861692 0.06421892764446209 0.006884193713830665 -0.06421892764446209
1.717E9 0.006708742229702682 -0.06274109603314788 0.9932912577702973 0.06274109603314788 0.9932912577702973 0.06274109603314788 0.006708742229702682 -0.06274109603314788
1.738E9 0.006541100090972727 -0.06128980979124193 0.9934588999090271 0.06128980979124193 0.9934588999090271 0.06128980979124193 0.006541100090972727 -0.06128980979124193
1.759E9 0.006380914194327002 -0.05986415013329877 0.9936190858056729 0.05986415013329877 0.9936190858056729 0.05986415013329877 0.006380914194327002 -0.05986415013329877
1.78E9 0.006227851890445355 -0.05846323970226052 0.9937721481095546 0.05846323970226052 0.9937721481095546 0.05846323970226052 0.006227851890445355 -0.05846323970226052
1.801E9 0.006081599591206947 -0.05708624028178073 0.9939184004087931 0.05708624028178073 0.9939184004087931 0.05708624028178073 0.006081599591206947 -0.05708624028178073
1.822E9 0.00594186148601568 -0.05573235065715624 0.9940581385139842 0.05573235065715624 0.9940581385139842 0.05573235065715624 0.00594186148601568 -0.05573235065715624
1.843E9 0.005808358357598222 -0.054400804613843216 0.9941916416424016 0.054400804613843216 0.9941916416424016 0.054400804613843216 0.005808358357598222 -0.054400804613843216
1.864E9 0.005680826488574772 -0.05309086906344583 0.994319173511425 0.05309086906344583 0.994319173511425 0.05309086906344583 0.005680826488574772 -0.05309086906344583
1.885E9 0.0055590166509480905 -0.051801842287897415 0.9944409833490518 0.051801842287897415 0.9944409833490518 0.051801842287897415 0.0055590166509480905 -0.051801842287897415
1.906E9 0.00544269317141154 -0.050533052293308865 0.9945573068285886 0.050533052293308865 0.9945573068285886 0.050533052293308865 0.00544269317141154 -0.050533052293308865
1.927E9 0.0053316330660523785 -0.04928385526564619 0.9946683669339476 0.04928385526564619 0.9946683669339476 0.04928385526564619 0.0053316330660523785 -0.04928385526564619
1.948E9 0.005225625238631765 -0.04805363412102828 0.9947743747613682 0.04805363412102828 0.9947743747613682 0.04805363412102828 0.005225625238631765 -0.04805363412102828
1.969E9 0.005124469737165055 -0.046841797144004264 0.9948755302628349 0.046841797144004264 0.9948755302628349 0.046841797144004264 0.005124469737165055 -0.046841797144004264
1.99E9 0.005027977064013349 -0.04564777670769538 0.9949720229359867 0.04564777670769538 0.9949720229359867 0.04564777670769538 0.005027977064013349 -0.04564777670769538
2.011E9 0.004935967535134454 -0.044471028070160096 0.9950640324648657 0.044471028070160096 0.9950640324648657 0.044471028070160096 0.004935967535134454 -0.044471028070160096
2.032E9 0.0048482706845353945 -0.043311028241778446 0.9951517293154646 0.043311028241778446 0.9951517293154646 0.043311028241778446 0.0048482706845353945 -0.043311028241778446
2.053E9 0.0047647247103229755 -0.04216727491884986 0.9952352752896767 0.04216727491884986 0.9952352752896767 0.04216727491884986 0.0047647247103229755 -0.04216727491884986
2.074E9 0.004685175959068725 -0.041039285478963884 0.9953148240409312 0.041039285478963884 0.9953148240409312 0.041039285478963884 0.004685175959068725 -0.041039285478963884
2.095E9 0.00460947844549287 -0.039926596034036935 0.995390521554507 0.039926596034036935 0.995390521554507 0.039926596034036935 0.00460947844549287 -0.039926596034036935
2.116E9 0.004537493404732814 -0.03882876053721607 0.9954625065952672 0.03882876053721607 0.9954625065952672 0.03882876053721607 0.004537493404732814 -0.03882876053721607
2.137E9 0.004469088874697155 -0.037745349940130776 0.9955309111253029 0.037745349940130776 0.9955309111253029 0.037745349940130776 0.004469088874697155 -0.037745349940130776
2.158E9 0.004404139306219729 -0.03667595139723298 0.9955958606937801 0.03667595139723298 0.9955958606937801 0.03667595139723298 0.004404139306219729 -0.03667595139723298
2.179E9 0.004342525198921447 -0.03562016751420256 0.9956574748010787 0.03562016751420256 0.9956574748010787 0.03562016751420256 0.004342525198921447 -0.03562016751420256
2.2E9 0.0042841327608631 -0.03457761563761386 0.9957158672391371 0.03457761563761386 0.9957158672391371 0.03457761563761386 0.0042841327608631 -0.03457761563761386
2.221E9 0.004228853590231385 -0.03354792718325931 0.9957711464097685 0.03354792718325931 0.9957711464097685 0.03354792718325931 0.004228853590231385 -0.03354792718325931
2.242E9 0.00417658437744518 -0.03253074700071217 0.9958234156225547 0.03253074700071217 0.9958234156225547 0.03253074700071217 0.00417658437744518 -0.03253074700071217
2.263E9 0.004127226626200472 -0.03152573277187914 0.9958727733737998 0.03152573277187914 0.9958727733737998 0.03152573277187914 0.004127226626200472 -0.03152573277187914
2.284E9 0.004080686392092198 -0.030532554441452118 0.9959193136079076 0.030532554441452118 0.9959193136079076 0.030532554441452118 0.004080686392092198 -0.030532554441452118
2.305E9 0.004036874037560308 -0.02955089367731301 0.9959631259624399 0.02955089367731301 0.9959631259624399 0.02955089367731301 0.004036874037560308 -0.02955089367731301
2.326E9 0.0039957040020067525 -0.028580443359078375 0.9960042959979932 0.028580443359078375 0.9960042959979932 0.028580443359078375 0.0039957040020067525 -0.028580443359078375
2.347E9 0.003957094586020981 -0.027620907093095844 0.996042905413979 0.027620907093095844 0.996042905413979 0.027620907093095844 0.003957094586020981 -0.027620907093095844
2.368E9 0.003920967748734315 -0.02667199875231709 0.9960790322512656 0.02667199875231709 0.9960790322512656 0.02667199875231709 0.003920967748734315 -0.02667199875231709
2.389E9 0.00388724891739943 -0.025733442039578662 0.9961127510826004 0.025733442039578662 0.9961127510826004 0.025733442039578662 0.00388724891739943 -0.025733442039578662
2.41E9 0.003855866808360444 -0.024804970072919815 0.9961441331916394 0.024804970072919815 0.9961441331916394 0.024804970072919815 0.003855866808360444 -0.024804970072919815
2.431E9 0.0038267532586425896 -0.023886324991656438 0.9961732467413573 0.023886324991656438 0.9961732467413573 0.023886324991656438 0.0038267532586425896 -0.023886324991656438
2.452E9 0.0037998430674485778 -0.02297725758201471 0.9962001569325514 0.02297725758201471 0.9962001569325514 0.02297725758201471 0.0037998430674485778 -0.02297725758201471
2.473E9 0.003775073846902119 -0.02207752692120608 0.9962249261530977 0.02207752692120608 0.9962249261530977 0.02207752692120608 0.003775073846902119 -0.02207752692120608
2.494E9 0.0037523858814278994 -0.02118690003889661 0.9962476141185722 0.02118690003889661 0.9962476141185722 0.02118690003889661 0.0037523858814278994 -0.02118690003889661
