!Murata Part Number: GRM0335C1E150JA01
!These Parameters are Measured in Series Mode Connection
!       o--ll--o
!Port1            Port2
!       o------o
!Operation Temp=25[degC], DC Bias Voltage=0[V]
!Freq. Start=100[MHz] Stop=8.5[GHz], 401[Steps]
!Data Generated on Jan 10, 2018
# Hz S RI R 50
!Freq.(Hz) S11(Real) S11(Imag) S21(Real) S21(Imag) S12(Real) S12(Imag) S22(Real) S22(Imag)
1.0E8 0.528759796487691 -0.498330757673605 0.47124020351230905 0.498330757673605 0.47124020351230905 0.498330757673605 0.528759796487691 -0.498330757673605
1.21E8 0.43369624392062495 -0.4945646587900822 0.566303756079375 0.4945646587900822 0.566303756079375 0.4945646587900822 0.43369624392062495 -0.4945646587900822
1.42E8 0.35716190210681487 -0.4779643525401341 0.642838097893185 0.4779643525401341 0.642838097893185 0.4779643525401341 0.35716190210681487 -0.4779643525401341
1.63E8 0.29639464788449377 -0.4552882576145274 0.7036053521155063 0.4552882576145274 0.7036053521155063 0.4552882576145274 0.29639464788449377 -0.4552882576145274
1.84E8 0.24824349021709138 -0.43043366534163924 0.7517565097829088 0.43043366534163924 0.7517565097829088 0.43043366534163924 0.24824349021709138 -0.43043366534163924
2.05E8 0.20992388755167454 -0.40551126679393623 0.7900761124483257 0.40551126679393623 0.7900761124483257 0.40551126679393623 0.20992388755167454 -0.40551126679393623
2.26E8 0.1791975555862929 -0.3815907950251473 0.8208024444137071 0.3815907950251473 0.8208024444137071 0.3815907950251473 0.1791975555862929 -0.3815907950251473
2.47E8 0.15433690131122038 -0.35915881530186705 0.8456630986887798 0.35915881530186705 0.8456630986887798 0.35915881530186705 0.15433690131122038 -0.35915881530186705
2.68E8 0.13403024882214012 -0.3383847262025495 0.8659697511778599 0.3383847262025495 0.8659697511778599 0.3383847262025495 0.13403024882214012 -0.3383847262025495
2.89E8 0.11728595722869531 -0.3192711946654274 0.8827140427713048 0.3192711946654274 0.8827140427713048 0.3192711946654274 0.11728595722869531 -0.3192711946654274
3.1E8 0.10335269038742008 -0.3017379182958316 0.89664730961258 0.3017379182958316 0.89664730961258 0.3017379182958316 0.10335269038742008 -0.3017379182958316
3.31E8 0.09165794070452124 -0.285667651009866 0.9083420592954787 0.285667651009866 0.9083420592954787 0.285667651009866 0.09165794070452124 -0.285667651009866
3.52E8 0.08176217339826444 -0.2709310451951122 0.9182378266017354 0.2709310451951122 0.9182378266017354 0.2709310451951122 0.08176217339826444 -0.2709310451951122
3.73E8 0.07332509298024123 -0.25739965392894204 0.926674907019759 0.25739965392894204 0.926674907019759 0.25739965392894204 0.07332509298024123 -0.25739965392894204
3.94E8 0.06608092415903313 -0.24495234760329634 0.9339190758409668 0.24495234760329634 0.9339190758409668 0.24495234760329634 0.06608092415903313 -0.24495234760329634
4.15E8 0.05982026982338341 -0.23347810083070417 0.9401797301766168 0.23347810083070417 0.9401797301766168 0.23347810083070417 0.05982026982338341 -0.23347810083070417
4.36E8 0.05437673374166886 -0.22287681445528448 0.9456232662583312 0.22287681445528448 0.9456232662583312 0.22287681445528448 0.05437673374166886 -0.22287681445528448
4.57E8 0.04961699296647683 -0.21305911000848432 0.9503830070335232 0.21305911000848432 0.9503830070335232 0.21305911000848432 0.04961699296647683 -0.21305911000848432
4.78E8 0.04543337571793878 -0.20394562220471765 0.9545666242820614 0.20394562220471765 0.9545666242820614 0.20394562220471765 0.04543337571793878 -0.20394562220471765
4.99E8 0.04173826866676857 -0.19546608110249705 0.9582617313332313 0.19546608110249705 0.9582617313332313 0.19546608110249705 0.04173826866676857 -0.19546608110249705
5.2E8 0.03845986877737496 -0.18755834231839896 0.9615401312226249 0.18755834231839896 0.9615401312226249 0.18755834231839896 0.03845986877737496 -0.18755834231839896
5.41E8 0.03553893056609556 -0.18016744788363534 0.9644610694339046 0.18016744788363534 0.9644610694339046 0.18016744788363534 0.03553893056609556 -0.18016744788363534
5.62E8 0.032926255907662766 -0.17324475746765414 0.9670737440923375 0.17324475746765414 0.9670737440923375 0.17324475746765414 0.032926255907662766 -0.17324475746765414
5.83E8 0.030580742037725255 -0.16674716577686347 0.9694192579622746 0.16674716577686347 0.9694192579622746 0.16674716577686347 0.030580742037725255 -0.16674716577686347
6.04E8 0.028467852391803116 -0.16063640893335712 0.9715321476081971 0.16063640893335712 0.9715321476081971 0.16063640893335712 0.028467852391803116 -0.16063640893335712
6.25E8 0.026558410162104786 -0.15487845590196272 0.973441589837895 0.15487845590196272 0.973441589837895 0.15487845590196272 0.026558410162104786 -0.15487845590196272
6.46E8 0.02482763997025775 -0.14944297786546631 0.9751723600297425 0.14944297786546631 0.9751723600297425 0.14944297786546631 0.02482763997025775 -0.14944297786546631
6.67E8 0.02325440165801645 -0.14430288727681537 0.9767455983419838 0.14430288727681537 0.9767455983419838 0.14430288727681537 0.02325440165801645 -0.14430288727681537
6.88E8 0.021820573858511057 -0.1394339382301336 0.9781794261414891 0.1394339382301336 0.9781794261414891 0.1394339382301336 0.021820573858511057 -0.1394339382301336
7.09E8 0.02051055511274261 -0.13481438026108966 0.9794894448872574 0.13481438026108966 0.9794894448872574 0.13481438026108966 0.02051055511274261 -0.13481438026108966
7.3E8 0.01931085781952381 -0.13042465840932296 0.9806891421804761 0.13042465840932296 0.9806891421804761 0.13042465840932296 0.01931085781952381 -0.13042465840932296
7.51E8 0.01820977594904034 -0.1262471531818647 0.9817902240509595 0.1262471531818647 0.9817902240509595 0.1262471531818647 0.01820977594904034 -0.1262471531818647
7.72E8 0.017197111709905226 -0.12226595485532178 0.982802888290095 0.12226595485532178 0.982802888290095 0.12226595485532178 0.017197111709905226 -0.12226595485532178
7.93E8 0.01626394959686857 -0.11846666729983085 0.9837360504031315 0.11846666729983085 0.9837360504031315 0.11846666729983085 0.01626394959686857 -0.11846666729983085
8.14E8 0.015402468722359156 -0.11483623717921938 0.9845975312776408 0.11483623717921938 0.9845975312776408 0.11483623717921938 0.015402468722359156 -0.11483623717921938
8.35E8 0.014605786240509644 -0.11136280497376304 0.9853942137594902 0.11136280497376304 0.9853942137594902 0.11136280497376304 0.014605786240509644 -0.11136280497376304
8.56E8 0.01386782614748592 -0.10803557478651837 0.9861321738525141 0.10803557478651837 0.9861321738525141 0.10803557478651837 0.01386782614748592 -0.10803557478651837
8.77E8 0.013183208890562145 -0.10484470033740653 0.9868167911094378 0.10484470033740653 0.9868167911094378 0.10484470033740653 0.013183208890562145 -0.10484470033740653
8.98E8 0.012547158117716213 -0.10178118492859757 0.9874528418822837 0.10178118492859757 0.9874528418822837 0.10178118492859757 0.012547158117716213 -0.10178118492859757
9.19E8 0.011955421607441142 -0.09883679348819428 0.988044578392559 0.09883679348819428 0.988044578392559 0.09883679348819428 0.011955421607441142 -0.09883679348819428
9.4E8 0.011404203978594549 -0.09600397507431482 0.9885957960214053 0.09600397507431482 0.9885957960214053 0.09600397507431482 0.011404203978594549 -0.09600397507431482
9.61E8 0.010890109225499392 -0.09327579445533549 0.9891098907745007 0.09327579445533549 0.9891098907745007 0.09327579445533549 0.010890109225499392 -0.09327579445533549
9.82E8 0.01041009147936493 -0.09064587158041829 0.9895899085206351 0.09064587158041829 0.9895899085206351 0.09064587158041829 0.01041009147936493 -0.09064587158041829
1.003E9 0.009961412682728822 -0.08810832792286545 0.9900385873172713 0.08810832792286545 0.9900385873172713 0.08810832792286545 0.009961412682728822 -0.08810832792286545
1.024E9 0.009541606093907348 -0.08565773882190453 0.9904583939060927 0.08565773882190453 0.9904583939060927 0.08565773882190453 0.009541606093907348 -0.08565773882190453
1.045E9 0.009148444724902073 -0.0832890910701507 0.9908515552750982 0.0832890910701507 0.9908515552750982 0.0832890910701507 0.009148444724902073 -0.0832890910701507
1.066E9 0.008779913967811578 -0.08099774509753255 0.9912200860321886 0.08099774509753255 0.9912200860321886 0.08099774509753255 0.008779913967811578 -0.08099774509753255
1.087E9 0.008434187788546736 -0.07877940119072771 0.9915658122114531 0.07877940119072771 0.9915658122114531 0.07877940119072771 0.008434187788546736 -0.07877940119072771
1.108E9 0.008109607968051968 -0.07663006926249821 0.9918903920319481 0.07663006926249821 0.9918903920319481 0.07663006926249821 0.008109607968051968 -0.07663006926249821
1.129E9 0.007804665954636694 -0.07454604174973399 0.9921953340453634 0.07454604174973399 0.9921953340453634 0.07454604174973399 0.007804665954636694 -0.07454604174973399
1.15E9 0.007517986959864235 -0.07252386927419635 0.9924820130401356 0.07252386927419635 0.9924820130401356 0.07252386927419635 0.007517986959864235 -0.07252386927419635
1.171E9 0.00724831598746607 -0.07056033874729034 0.9927516840125339 0.07056033874729034 0.9927516840125339 0.07056033874729034 0.00724831598746607 -0.07056033874729034
1.192E9 0.0069945055321382135 -0.0686524536408932 0.993005494467862 0.0686524536408932 0.993005494467862 0.0686524536408932 0.0069945055321382135 -0.0686524536408932
1.213E9 0.006755504724586816 -0.06679741618130666 0.9932444952754133 0.06679741618130666 0.9932444952754133 0.06679741618130666 0.006755504724586816 -0.06679741618130666
1.234E9 0.006530349732235368 -0.06499261125363269 0.9934696502677646 0.06499261125363269 0.9934696502677646 0.06499261125363269 0.006530349732235368 -0.06499261125363269
1.255E9 0.006318155252727965 -0.06323559183000015 0.993681844747272 0.06323559183000015 0.993681844747272 0.06323559183000015 0.006318155252727965 -0.06323559183000015
1.276E9 0.006118106960687575 -0.06152406575769496 0.9938818930393123 0.06152406575769496 0.9938818930393123 0.06152406575769496 0.006118106960687575 -0.06152406575769496
1.297E9 0.005929454787868595 -0.059855883762871154 0.9940705452121315 0.059855883762871154 0.9940705452121315 0.059855883762871154 0.005929454787868595 -0.059855883762871154
1.318E9 0.005751506933494251 -0.05822902854257512 0.9942484930665059 0.05822902854257512 0.9942484930665059 0.05822902854257512 0.005751506933494251 -0.05822902854257512
1.339E9 0.0055836245156955676 -0.05664160483266375 0.9944163754843044 0.05664160483266375 0.9944163754843044 0.05664160483266375 0.0055836245156955676 -0.05664160483266375
1.36E9 0.005425216786983526 -0.05509183035214559 0.9945747832130164 0.05509183035214559 0.9945747832130164 0.05509183035214559 0.005425216786983526 -0.05509183035214559
1.381E9 0.0052757368469308775 -0.053578027535788074 0.9947242631530693 0.053578027535788074 0.9947242631530693 0.053578027535788074 0.0052757368469308775 -0.053578027535788074
1.402E9 0.005134677793997056 -0.05209861597673313 0.9948653222060029 0.05209861597673313 0.9948653222060029 0.05209861597673313 0.005134677793997056 -0.05209861597673313
1.423E9 0.0050015692659324896 -0.05065210550954439 0.9949984307340676 0.05065210550954439 0.9949984307340676 0.05065210550954439 0.0050015692659324896 -0.05065210550954439
1.444E9 0.004875974324641483 -0.0492370898717276 0.9951240256753584 0.0492370898717276 0.9951240256753584 0.0492370898717276 0.004875974324641483 -0.0492370898717276
1.465E9 0.004757486646928525 -0.04785224088847219 0.9952425133530715 0.04785224088847219 0.9952425133530715 0.04785224088847219 0.004757486646928525 -0.04785224088847219
1.486E9 0.004645727987335622 -0.04649630313126322 0.9953542720126644 0.04649630313126322 0.9953542720126644 0.04649630313126322 0.004645727987335622 -0.04649630313126322
1.507E9 0.004540345883412841 -0.04516808900622532 0.9954596541165871 0.04516808900622532 0.9954596541165871 0.04516808900622532 0.004540345883412841 -0.04516808900622532
1.528E9 0.004441011577345016 -0.04386647423266369 0.9955589884226551 0.04386647423266369 0.9955589884226551 0.04386647423266369 0.004441011577345016 -0.04386647423266369
1.549E9 0.0043474181309652166 -0.04259039367634072 0.9956525818690347 0.04259039367634072 0.9956525818690347 0.04259039367634072 0.0043474181309652166 -0.04259039367634072
1.57E9 0.004259278713888035 -0.041338837505640304 0.9957407212861117 0.041338837505640304 0.9957407212861117 0.041338837505640304 0.004259278713888035 -0.041338837505640304
1.591E9 0.00417632504684983 -0.04011084764197612 0.99582367495315 0.04011084764197612 0.99582367495315 0.04011084764197612 0.00417632504684983 -0.04011084764197612
1.612E9 0.004098305984397955 -0.03890551447865057 0.995901694015602 0.03890551447865057 0.995901694015602 0.03890551447865057 0.004098305984397955 -0.03890551447865057
1.633E9 0.004024986222867513 -0.03772197384490747 0.9959750137771325 0.03772197384490747 0.9959750137771325 0.03772197384490747 0.004024986222867513 -0.03772197384490747
1.654E9 0.00395614512115796 -0.03655940419418285 0.9960438548788421 0.03655940419418285 0.9960438548788421 0.03655940419418285 0.00395614512115796 -0.03655940419418285
1.675E9 0.0038915756232024514 -0.03541702399757635 0.9961084243767976 0.03541702399757635 0.9961084243767976 0.03541702399757635 0.0038915756232024514 -0.03541702399757635
1.696E9 0.0038310832722363362 -0.034294089325369245 0.996168916727764 0.034294089325369245 0.996168916727764 0.034294089325369245 0.0038310832722363362 -0.034294089325369245
1.717E9 0.0037744853080393195 -0.033189891601029926 0.9962255146919606 0.033189891601029926 0.9962255146919606 0.033189891601029926 0.0037744853080393195 -0.033189891601029926
1.738E9 0.0037216098392675373 -0.03210375551359353 0.9962783901607326 0.03210375551359353 0.9962783901607326 0.03210375551359353 0.0037216098392675373 -0.03210375551359353
1.759E9 0.0036722950838233587 -0.031035037075600375 0.9963277049161768 0.031035037075600375 0.9963277049161768 0.031035037075600375 0.0036722950838233587 -0.031035037075600375
1.78E9 0.0036263886709461826 -0.029983121814943586 0.9963736113290539 0.029983121814943586 0.9963736113290539 0.029983121814943586 0.0036263886709461826 -0.029983121814943586
1.801E9 0.003583746999358717 -0.028947423090024165 0.9964162530006411 0.028947423090024165 0.9964162530006411 0.028947423090024165 0.003583746999358717 -0.028947423090024165
1.822E9 0.0035442346463809967 -0.02792738051855635 0.9964557653536188 0.02792738051855635 0.9964557653536188 0.02792738051855635 0.0035442346463809967 -0.02792738051855635
1.843E9 0.0035077238234373365 -0.026922458511215688 0.9964922761765628 0.026922458511215688 0.9964922761765628 0.026922458511215688 0.0035077238234373365 -0.026922458511215688
1.864E9 0.0034740938738378195 -0.025932144902091593 0.9965259061261622 0.025932144902091593 0.9965259061261622 0.025932144902091593 0.0034740938738378195 -0.025932144902091593
1.885E9 0.003443230809122258 -0.024955949668598352 0.9965567691908777 0.024955949668598352 0.9965567691908777 0.024955949668598352 0.003443230809122258 -0.024955949668598352
1.906E9 0.0034150268806169065 -0.023993403734126645 0.9965849731193832 0.023993403734126645 0.9965849731193832 0.023993403734126645 0.0034150268806169065 -0.023993403734126645
1.927E9 0.003389380183177804 -0.02304405784728513 0.9966106198168222 0.02304405784728513 0.9966106198168222 0.02304405784728513 0.003389380183177804 -0.02304405784728513
1.948E9 0.003366194288383911 -0.022107481532096983 0.9966338057116161 0.022107481532096983 0.9966338057116161 0.022107481532096983 0.003366194288383911 -0.022107481532096983
1.969E9 0.003345377904702012 -0.021183262103982064 0.9966546220952979 0.021183262103982064 0.9966546220952979 0.021183262103982064 0.003345377904702012 -0.021183262103982064
1.99E9 0.0033268445623775254 -0.0202710037467808 0.9966731554376224 0.0202710037467808 0.9966731554376224 0.0202710037467808 0.0033268445623775254 -0.0202710037467808
2.011E9 0.0033105123210134097 -0.019370326646460156 0.9966894876789867 0.019370326646460156 0.9966894876789867 0.019370326646460156 0.0033105123210134097 -0.019370326646460156
2.032E9 0.0032963034979864333 -0.01848086617749334 0.9967036965020138 0.01848086617749334 0.9967036965020138 0.01848086617749334 0.0032963034979864333 -0.01848086617749334
2.053E9 0.003284144416018193 -0.017602272138224337 0.9967158555839815 0.017602272138224337 0.9967158555839815 0.017602272138224337 0.003284144416018193 -0.017602272138224337
2.074E9 0.0032739651683696613 -0.016734208031819235 0.9967260348316304 0.016734208031819235 0.9967260348316304 0.016734208031819235 0.0032739651683696613 -0.016734208031819235
2.095E9 0.0032656994002643923 -0.015876350389671865 0.9967343005997356 0.015876350389671865 0.9967343005997356 0.015876350389671865 0.0032656994002643923 -0.015876350389671865
2.116E9 0.0032592841052687515 -0.015028388134374638 0.9967407158947311 0.015028388134374638 0.9967407158947311 0.015028388134374638 0.0032592841052687515 -0.015028388134374638
2.137E9 0.003254659435468465 -0.014190021979586052 0.9967453405645317 0.014190021979586052 0.9967453405645317 0.014190021979586052 0.003254659435468465 -0.014190021979586052
2.158E9 0.0032517685243814384 -0.013360963864330177 0.9967482314756186 0.013360963864330177 0.9967482314756186 0.013360963864330177 0.0032517685243814384 -0.013360963864330177
2.179E9 0.0032505573216376157 -0.012540936419448577 0.9967494426783625 0.012540936419448577 0.9967494426783625 0.012540936419448577 0.0032505573216376157 -0.012540936419448577
2.2E9 0.0032509744385390365 -0.011729672464095581 0.9967490255614608 0.011729672464095581 0.9967490255614608 0.011729672464095581 0.0032509744385390365 -0.011729672464095581
2.221E9 0.0032529710036878923 -0.01092691453032368 0.9967470289963122 0.01092691453032368 0.9967470289963122 0.01092691453032368 0.0032529710036878923 -0.01092691453032368
2.242E9 0.003256500527938159 -0.010132414413949199 0.9967434994720619 0.010132414413949199 0.9967434994720619 0.010132414413949199 0.003256500527938159 -0.010132414413949199
2.263E9 0.003261518777987925 -0.009345932750020006 0.9967384812220124 0.009345932750020006 0.9967384812220124 0.009345932750020006 0.003261518777987925 -0.009345932750020006
2.284E9 0.00326798365798545 -0.00856723861132783 0.9967320163420147 0.00856723861132783 0.9967320163420147 0.00856723861132783 0.00326798365798545 -0.00856723861132783
2.305E9 0.003275855098572955 -0.007796109128518969 0.9967241449014269 0.007796109128518969 0.9967241449014269 0.007796109128518969 0.003275855098572955 -0.007796109128518969
2.326E9 0.0032850949528384727 -0.007032329130459931 0.9967149050471615 0.007032329130459931 0.9967149050471615 0.007032329130459931 0.0032850949528384727 -0.007032329130459931
2.347E9 0.0032956668986883486 -0.0062756908036084216 0.9967043331013117 0.0062756908036084216 0.9967043331013117 0.0062756908036084216 0.0032956668986883486 -0.0062756908036084216
2.368E9 0.0033075363471915804 -0.005525993369227539 0.9966924636528084 0.005525993369227539 0.9966924636528084 0.005525993369227539 0.0033075363471915804 -0.005525993369227539
2.389E9 0.0033206703564823297 -0.004783042777361099 0.9966793296435177 0.004783042777361099 0.9966793296435177 0.004783042777361099 0.0033206703564823297 -0.004783042777361099
2.41E9 0.0033350375508391233 -0.004046651416561849 0.9966649624491607 0.004046651416561849 0.9966649624491607 0.004046651416561849 0.0033350375508391233 -0.004046651416561849
2.431E9 0.003350608044588718 -0.00331663783843352 0.9966493919554115 0.00331663783843352 0.9966493919554115 0.00331663783843352 0.003350608044588718 -0.00331663783843352
2.452E9 0.0033673533705094244 -0.0025928264961101173 0.9966326466294905 0.0025928264961101173 0.9966326466294905 0.0025928264961101173 0.0033673533705094244 -0.0025928264961101173
2.473E9 0.003385246412433462 -0.0018750474958548957 0.9966147535875665 0.0018750474958548957 0.9966147535875665 0.0018750474958548957 0.003385246412433462 -0.0018750474958548957
