!Murata Part Number: GRM0335C1E1R5BA01
!These Parameters are Measured in Series Mode Connection
!       o--ll--o
!Port1            Port2
!       o------o
!Operation Temp=25[degC], DC Bias Voltage=0[V]
!Freq. Start=100[MHz] Stop=8.5[GHz], 401[Steps]
!Data Generated on Jan 10, 2017
# Hz S RI R 50
!Freq.(Hz) S11(Real) S11(Imag) S21(Real) S21(Imag) S12(Real) S12(Imag) S22(Real) S22(Imag)
1.0E8 0.9911677856056696 -0.09342725108186802 0.008832214394330315 0.09342725108186802 0.008832214394330315 0.09342725108186802 0.9911677856056696 -0.09342725108186802
1.21E8 0.987119890291855 -0.1125919434856009 0.012880109708145028 0.1125919434856009 0.012880109708145028 0.1125919434856009 0.987119890291855 -0.1125919434856009
1.42E8 0.9823442312182906 -0.131502681985284 0.017655768781709498 0.131502681985284 0.017655768781709498 0.131502681985284 0.9823442312182906 -0.131502681985284
1.63E8 0.9768616366348233 -0.15012002361424667 0.023138363365176686 0.15012002361424667 0.023138363365176686 0.15012002361424667 0.9768616366348233 -0.15012002361424667
1.84E8 0.9706956545956371 -0.1684066148996082 0.02930434540436292 0.1684066148996082 0.02930434540436292 0.1684066148996082 0.9706956545956371 -0.1684066148996082
2.05E8 0.9638723076178274 -0.18632741036062547 0.03612769238217274 0.18632741036062547 0.03612769238217274 0.18632741036062547 0.9638723076178274 -0.18632741036062547
2.26E8 0.9564198286228002 -0.20384985837108888 0.04358017137719989 0.20384985837108888 0.04358017137719989 0.20384985837108888 0.9564198286228002 -0.20384985837108888
2.47E8 0.9483683829498272 -0.22094405292920122 0.05163161705017279 0.22094405292920122 0.05163161705017279 0.22094405292920122 0.9483683829498272 -0.22094405292920122
2.68E8 0.9397497812699603 -0.23758285063525642 0.06025021873003977 0.23758285063525642 0.06025021873003977 0.23758285063525642 0.9397497812699603 -0.23758285063525642
2.89E8 0.930597188141755 -0.25374195290742135 0.06940281185824519 0.25374195290742135 0.06940281185824519 0.25374195290742135 0.930597188141755 -0.25374195290742135
3.1E8 0.920944830749228 -0.26939995414778867 0.07905516925077213 0.26939995414778867 0.07905516925077213 0.26939995414778867 0.920944830749228 -0.26939995414778867
3.31E8 0.9108277120620089 -0.28453835718688253 0.0891722879379912 0.28453835718688253 0.0891722879379912 0.28453835718688253 0.9108277120620089 -0.28453835718688253
3.52E8 0.900281332275075 -0.2991415578712365 0.09971866772492505 0.2991415578712365 0.09971866772492505 0.2991415578712365 0.900281332275075 -0.2991415578712365
3.73E8 0.8893414219395901 -0.3131968011060303 0.11065857806040973 0.3131968011060303 0.11065857806040973 0.3131968011060303 0.8893414219395901 -0.3131968011060303
3.94E8 0.8780436897064997 -0.3266941110177781 0.12195631029350036 0.3266941110177781 0.12195631029350036 0.3266941110177781 0.8780436897064997 -0.3266941110177781
4.15E8 0.8664235870895697 -0.339626198159419 0.13357641291043038 0.339626198159419 0.13357641291043038 0.339626198159419 0.8664235870895697 -0.339626198159419
4.36E8 0.8545160921322374 -0.35198834684415425 0.14548390786776255 0.35198834684415425 0.14548390786776255 0.35198834684415425 0.8545160921322374 -0.35198834684415425
4.57E8 0.8423555133488803 -0.36377828577032484 0.15764448665111977 0.36377828577032484 0.15764448665111977 0.36377828577032484 0.8423555133488803 -0.36377828577032484
4.78E8 0.8299753148196686 -0.3749960450953105 0.17002468518033145 0.3749960450953105 0.17002468518033145 0.3749960450953105 0.8299753148196686 -0.3749960450953105
4.99E8 0.8174079628602502 -0.3856438030413905 0.18259203713974978 0.3856438030413905 0.18259203713974978 0.3856438030413905 0.8174079628602502 -0.3856438030413905
5.2E8 0.8046847942717432 -0.3957257249814537 0.19531520572825684 0.3957257249814537 0.19531520572825684 0.3957257249814537 0.8046847942717432 -0.3957257249814537
5.41E8 0.791835905808951 -0.4052477977686335 0.20816409419104898 0.4052477977686335 0.20816409419104898 0.4052477977686335 0.791835905808951 -0.4052477977686335
5.62E8 0.7788900641889671 -0.41421766185266146 0.22110993581103294 0.41421766185266146 0.22110993581103294 0.41421766185266146 0.7788900641889671 -0.41421766185266146
5.83E8 0.7658746356998208 -0.42264444347785635 0.23412536430017916 0.42264444347785635 0.23412536430017916 0.42264444347785635 0.7658746356998208 -0.42264444347785635
6.04E8 0.7528155342590668 -0.4305385889933019 0.2471844657409333 0.4305385889933019 0.2471844657409333 0.4305385889933019 0.7528155342590668 -0.4305385889933019
6.25E8 0.739737186613145 -0.4379117030340111 0.26026281338685503 0.4379117030340111 0.26026281338685503 0.4379117030340111 0.739737186613145 -0.4379117030340111
6.46E8 0.7266625132566745 -0.44477639206063113 0.2733374867433256 0.44477639206063113 0.2733374867433256 0.44477639206063113 0.7266625132566745 -0.44477639206063113
6.67E8 0.7136129235823396 -0.4511461144811413 0.2863870764176604 0.4511461144811413 0.2863870764176604 0.4511461144811413 0.7136129235823396 -0.4511461144811413
6.88E8 0.7006083237419136 -0.45703503832639597 0.2993916762580864 0.45703503832639597 0.2993916762580864 0.45703503832639597 0.7006083237419136 -0.45703503832639597
7.09E8 0.6876671357020706 -0.4624579072163545 0.31233286429792934 0.4624579072163545 0.31233286429792934 0.4624579072163545 0.6876671357020706 -0.4624579072163545
7.3E8 0.6748063260097565 -0.4674299151383605 0.3251936739902434 0.4674299151383605 0.3251936739902434 0.4674299151383605 0.6748063260097565 -0.4674299151383605
7.51E8 0.6620414428358921 -0.47196659036477984 0.337958557164108 0.47196659036477984 0.337958557164108 0.47196659036477984 0.6620414428358921 -0.47196659036477984
7.72E8 0.6493866599381822 -0.4760836886656353 0.35061334006181777 0.4760836886656353 0.35061334006181777 0.4760836886656353 0.6493866599381822 -0.4760836886656353
7.93E8 0.6368548262693255 -0.47979709582279095 0.36314517373067434 0.47979709582279095 0.36314517373067434 0.47979709582279095 0.6368548262693255 -0.47979709582279095
8.14E8 0.6244575200518482 -0.4831227393252901 0.3755424799481517 0.4831227393252901 0.3755424799481517 0.4831227393252901 0.6244575200518482 -0.4831227393252901
8.35E8 0.6122051062415843 -0.4860765090196959 0.3877948937584157 0.4860765090196959 0.3877948937584157 0.4860765090196959 0.6122051062415843 -0.4860765090196959
8.56E8 0.6001067964053612 -0.48867418640341903 0.3998932035946387 0.48867418640341903 0.3998932035946387 0.48867418640341903 0.6001067964053612 -0.48867418640341903
8.77E8 0.5881707101421585 -0.4909313821814461 0.41182928985784156 0.4909313821814461 0.41182928985784156 0.4909313821814461 0.5881707101421585 -0.4909313821814461
8.98E8 0.576403937278753 -0.4928634816558896 0.42359606272124706 0.4928634816558896 0.42359606272124706 0.4928634816558896 0.576403937278753 -0.4928634816558896
9.19E8 0.5648126001689802 -0.49448559748153526 0.4351873998310198 0.49448559748153526 0.4351873998310198 0.49448559748153526 0.5648126001689802 -0.49448559748153526
9.4E8 0.5534019155189165 -0.4958125292972471 0.44659808448108346 0.4958125292972471 0.44659808448108346 0.4958125292972471 0.5534019155189165 -0.4958125292972471
9.61E8 0.5421762552476387 -0.4968587297309012 0.45782374475236115 0.4968587297309012 0.45782374475236115 0.4968587297309012 0.5421762552476387 -0.4968587297309012
9.82E8 0.5311392059740879 -0.49763827627278184 0.4688607940259121 0.49763827627278184 0.4688607940259121 0.49763827627278184 0.5311392059740879 -0.49763827627278184
1.003E9 0.5202936267946181 -0.4981648485174573 0.47970637320538184 0.4981648485174573 0.47970637320538184 0.4981648485174573 0.5202936267946181 -0.4981648485174573
1.024E9 0.5096417050829072 -0.4984517102856337 0.4903582949170928 0.4984517102856337 0.4903582949170928 0.4984517102856337 0.5096417050829072 -0.4984517102856337
1.045E9 0.4991850101040775 -0.4985116961540105 0.5008149898959224 0.4985116961540105 0.5008149898959224 0.4985116961540105 0.4991850101040775 -0.4985116961540105
1.066E9 0.488924544288299 -0.49835720194157695 0.511075455711701 0.49835720194157695 0.511075455711701 0.49835720194157695 0.488924544288299 -0.49835720194157695
1.087E9 0.4788607920561099 -0.49800017872405916 0.52113920794389 0.49800017872405916 0.52113920794389 0.49800017872405916 0.4788607920561099 -0.49800017872405916
1.108E9 0.46899376612855515 -0.49745212997345073 0.5310062338714449 0.49745212997345073 0.5310062338714449 0.49745212997345073 0.46899376612855515 -0.49745212997345073
1.129E9 0.4593230512904013 -0.4967241114460022 0.5406769487095988 0.4967241114460022 0.5406769487095988 0.4967241114460022 0.4593230512904013 -0.4967241114460022
1.15E9 0.4498478456046187 -0.49582673346904144 0.5501521543953812 0.49582673346904144 0.5501521543953812 0.49582673346904144 0.4498478456046187 -0.49582673346904144
1.171E9 0.4405669991014443 -0.49477016530404866 0.5594330008985556 0.49477016530404866 0.5594330008985556 0.49477016530404866 0.4405669991014443 -0.49477016530404866
1.192E9 0.4314790499861547 -0.493564141290078 0.5685209500138454 0.493564141290078 0.5685209500138454 0.493564141290078 0.4314790499861547 -0.493564141290078
1.213E9 0.4225822584265968 -0.49221796849757016 0.5774177415734033 0.49221796849757016 0.5774177415734033 0.49221796849757016 0.4225822584265968 -0.49221796849757016
1.234E9 0.41387463799502316 -0.49074053564758663 0.5861253620049768 0.49074053564758663 0.5861253620049768 0.49074053564758663 0.41387463799502316 -0.49074053564758663
1.255E9 0.40535398484922824 -0.4891403230753098 0.5946460151507716 0.4891403230753098 0.5946460151507716 0.4891403230753098 0.40535398484922824 -0.4891403230753098
1.276E9 0.39701790474580295 -0.48742541353918084 0.6029820952541971 0.48742541353918084 0.6029820952541971 0.48742541353918084 0.39701790474580295 -0.48742541353918084
1.297E9 0.38886383798385243 -0.4856035036981813 0.6111361620161474 0.4856035036981813 0.6111361620161474 0.4856035036981813 0.38886383798385243 -0.4856035036981813
1.318E9 0.3808890823810836 -0.4836819160994779 0.6191109176189163 0.4836819160994779 0.6191109176189163 0.4836819160994779 0.3808890823810836 -0.4836819160994779
1.339E9 0.3730908143860832 -0.48166761153691307 0.626909185613917 0.48166761153691307 0.626909185613917 0.48166761153691307 0.3730908143860832 -0.48166761153691307
1.36E9 0.3654661084310991 -0.4795672016576596 0.6345338915689008 0.4795672016576596 0.6345338915689008 0.4795672016576596 0.3654661084310991 -0.4795672016576596
1.381E9 0.3580119546289936 -0.47738696170979383 0.6419880453710065 0.47738696170979383 0.6419880453710065 0.47738696170979383 0.3580119546289936 -0.47738696170979383
1.402E9 0.3507252749164249 -0.47513284333762174 0.649274725083575 0.47513284333762174 0.649274725083575 0.47513284333762174 0.3507252749164249 -0.47513284333762174
1.423E9 0.34360293774294987 -0.4728104873443911 0.6563970622570502 0.4728104873443911 0.6563970622570502 0.4728104873443911 0.34360293774294987 -0.4728104873443911
1.444E9 0.336641771402763 -0.47042523635358097 0.6633582285972368 0.47042523635358097 0.6633582285972368 0.47042523635358097 0.336641771402763 -0.47042523635358097
1.465E9 0.329838576102355 -0.46798214731038423 0.6701614238976449 0.46798214731038423 0.6701614238976449 0.46798214731038423 0.329838576102355 -0.46798214731038423
1.486E9 0.3231901348535948 -0.46548600377433047 0.6768098651464052 0.46548600377433047 0.6768098651464052 0.46548600377433047 0.3231901348535948 -0.46548600377433047
1.507E9 0.3166932232777206 -0.4629413279623427 0.6833067767222794 0.4629413279623427 0.6833067767222794 0.4629413279623427 0.3166932232777206 -0.4629413279623427
1.528E9 0.3103446184015491 -0.46035239250893123 0.689655381598451 0.46035239250893123 0.689655381598451 0.46035239250893123 0.3103446184015491 -0.46035239250893123
1.549E9 0.3041411065229673 -0.4577232319168011 0.6958588934770328 0.4577232319168011 0.6958588934770328 0.4577232319168011 0.3041411065229673 -0.4577232319168011
1.57E9 0.2980794902184879 -0.45505765367693857 0.701920509781512 0.45505765367693857 0.701920509781512 0.45505765367693857 0.2980794902184879 -0.45505765367693857
1.591E9 0.29215659456141174 -0.4523592490423249 0.7078434054385884 0.4523592490423249 0.7078434054385884 0.4523592490423249 0.29215659456141174 -0.4523592490423249
1.612E9 0.28636927261495815 -0.449631403443867 0.7136307273850419 0.449631403443867 0.7136307273850419 0.449631403443867 0.28636927261495815 -0.449631403443867
1.633E9 0.2807144102606569 -0.4468773065410005 0.719285589739343 0.4468773065410005 0.719285589739343 0.4468773065410005 0.2807144102606569 -0.4468773065410005
1.654E9 0.275188930418335 -0.444099961902752 0.7248110695816651 0.444099961902752 0.7248110695816651 0.444099961902752 0.275188930418335 -0.444099961902752
1.675E9 0.26978979671023445 -0.4413021963179211 0.7302102032897655 0.4413021963179211 0.7302102032897655 0.4413021963179211 0.26978979671023445 -0.4413021963179211
1.696E9 0.26451401661814367 -0.43848666873549236 0.7354859833818562 0.43848666873549236 0.7354859833818562 0.43848666873549236 0.26451401661814367 -0.43848666873549236
1.717E9 0.25935864417894394 -0.4356558788384592 0.7406413558210562 0.4356558788384592 0.7406413558210562 0.4356558788384592 0.25935864417894394 -0.4356558788384592
1.738E9 0.25432078226066496 -0.43281217525598675 0.7456792177393349 0.43281217525598675 0.7456792177393349 0.43281217525598675 0.25432078226066496 -0.43281217525598675
1.759E9 0.24939758445800886 -0.42995776342028996 0.7506024155419911 0.42995776342028996 0.7506024155419911 0.42995776342028996 0.24939758445800886 -0.42995776342028996
1.78E9 0.24458625664334163 -0.42709471307578406 0.7554137433566586 0.42709471307578406 0.7554137433566586 0.42709471307578406 0.24458625664334163 -0.42709471307578406
1.801E9 0.23988405820637104 -0.4242249654490359 0.760115941793629 0.4242249654490359 0.760115941793629 0.4242249654490359 0.23988405820637104 -0.4242249654490359
1.822E9 0.23528830301311218 -0.4213503400887926 0.7647116969868879 0.4213503400887926 0.7647116969868879 0.4213503400887926 0.23528830301311218 -0.4213503400887926
1.843E9 0.23079636011229268 -0.4184725413859539 0.7692036398877071 0.4184725413859539 0.7692036398877071 0.4184725413859539 0.23079636011229268 -0.4184725413859539
1.864E9 0.22640565421506761 -0.41559316478378705 0.7735943457849324 0.41559316478378705 0.7735943457849324 0.41559316478378705 0.22640565421506761 -0.41559316478378705
1.885E9 0.22211366597177523 -0.41271370268898233 0.7778863340282249 0.41271370268898233 0.7778863340282249 0.41271370268898233 0.22211366597177523 -0.41271370268898233
1.906E9 0.2179179320674791 -0.40983555009433464 0.7820820679325209 0.40983555009433464 0.7820820679325209 0.40983555009433464 0.2179179320674791 -0.40983555009433464
1.927E9 0.21381604515620237 -0.4069600099239312 0.7861839548437979 0.4069600099239312 0.7861839548437979 0.4069600099239312 0.21381604515620237 -0.4069600099239312
1.948E9 0.2098056536520412 -0.4040882981117279 0.7901943463479588 0.4040882981117279 0.7901943463479588 0.4040882981117279 0.2098056536520412 -0.4040882981117279
1.969E9 0.2058844613937621 -0.40122154842433955 0.7941155386062378 0.40122154842433955 0.7941155386062378 0.40122154842433955 0.2058844613937621 -0.40122154842433955
1.99E9 0.20205022719802232 -0.39836081703874826 0.7979497728019777 0.39836081703874826 0.7979497728019777 0.39836081703874826 0.20205022719802232 -0.39836081703874826
2.011E9 0.1983007643149942 -0.3955070868854637 0.8016992356850059 0.3955070868854637 0.8016992356850059 0.3955070868854637 0.1983007643149942 -0.3955070868854637
2.032E9 0.1946339397989272 -0.392661271767463 0.8053660602010726 0.392661271767463 0.8053660602010726 0.392661271767463 0.1946339397989272 -0.392661271767463
2.053E9 0.19104767380502863 -0.38982422026499675 0.8089523261949713 0.38982422026499675 0.8089523261949713 0.38982422026499675 0.19104767380502863 -0.38982422026499675
2.074E9 0.18753993882298117 -0.3869967194360766 0.8124600611770187 0.3869967194360766 0.8124600611770187 0.3869967194360766 0.18753993882298117 -0.3869967194360766
2.095E9 0.18410875885644665 -0.38417949832218223 0.8158912411435532 0.38417949832218223 0.8158912411435532 0.38417949832218223 0.18410875885644665 -0.38417949832218223
2.116E9 0.18075220855700366 -0.3813732312684164 0.8192477914429963 0.3813732312684164 0.8192477914429963 0.3813732312684164 0.18075220855700366 -0.3813732312684164
2.137E9 0.1774684123201486 -0.37857854106702743 0.8225315876798512 0.37857854106702743 0.8225315876798512 0.37857854106702743 0.1774684123201486 -0.37857854106702743
2.158E9 0.17425554335023635 -0.3757960019329027 0.8257444566497638 0.3757960019329027 0.8257444566497638 0.3757960019329027 0.17425554335023635 -0.3757960019329027
2.179E9 0.17111182270054795 -0.3730261423193098 0.8288881772994521 0.3730261423193098 0.8288881772994521 0.3730261423193098 0.17111182270054795 -0.3730261423193098
2.2E9 0.1680355182940387 -0.37026944758184105 0.8319644817059613 0.37026944758184105 0.8319644817059613 0.37026944758184105 0.1680355182940387 -0.37026944758184105
2.221E9 0.1650249439297488 -0.3675263624981947 0.8349750560702514 0.3675263624981947 0.8349750560702514 0.3675263624981947 0.1650249439297488 -0.3675263624981947
2.242E9 0.16207845827932726 -0.3647972936511066 0.8379215417206726 0.3647972936511066 0.8379215417206726 0.3647972936511066 0.16207845827932726 -0.3647972936511066
2.263E9 0.15919446387764308 -0.3620826116814319 0.8408055361223566 0.3620826116814319 0.8408055361223566 0.3620826116814319 0.15919446387764308 -0.3620826116814319
2.284E9 0.15637140611101769 -0.3593826534180673 0.8436285938889824 0.3593826534180673 0.8436285938889824 0.3593826534180673 0.15637140611101769 -0.3593826534180673
2.305E9 0.15360777220621633 -0.3566977238911027 0.8463922277937838 0.3566977238911027 0.8463922277937838 0.3566977238911027 0.15360777220621633 -0.3566977238911027
2.326E9 0.15090209022297105 -0.3540280982343003 0.849097909777029 0.3540280982343003 0.849097909777029 0.3540280982343003 0.15090209022297105 -0.3540280982343003
2.347E9 0.14825292805248141 -0.35137402348270924 0.8517470719475184 0.35137402348270924 0.8517470719475184 0.35137402348270924 0.14825292805248141 -0.35137402348270924
2.368E9 0.14565889242403698 -0.3487357202709512 0.8543411075759629 0.3487357202709512 0.8543411075759629 0.3487357202709512 0.14565889242403698 -0.3487357202709512
2.389E9 0.14311862792163688 -0.3461133844374439 0.8568813720783631 0.3461133844374439 0.8568813720783631 0.3461133844374439 0.14311862792163688 -0.3461133844374439
2.41E9 0.14063081601223487 -0.34350718853957335 0.8593691839877652 0.34350718853957335 0.8593691839877652 0.34350718853957335 0.14063081601223487 -0.34350718853957335
2.431E9 0.13819417408701606 -0.34091728328457616 0.8618058259129839 0.34091728328457616 0.8618058259129839 0.34091728328457616 0.13819417408701606 -0.34091728328457616
2.452E9 0.13580745451691112 -0.3383437988806569 0.8641925454830889 0.3383437988806569 0.8641925454830889 0.3383437988806569 0.13580745451691112 -0.3383437988806569
2.473E9 0.13346944372337166 -0.33578684631263517 0.8665305562766283 0.33578684631263517 0.8665305562766283 0.33578684631263517 0.13346944372337166 -0.33578684631263517
2.494E9 0.13117896126526737 -0.3332465185462002 0.8688210387347325 0.3332465185462002 0.8688210387347325 0.3332465185462002 0.13117896126526737 -0.3332465185462002
2.515E9 0.12893485894261963 -0.33072289166464147 0.8710651410573803 0.33072289166464147 0.8710651410573803 0.33072289166464147 0.12893485894261963 -0.33072289166464147
2.536E9 0.12673601991775046 -0.3282160259417204 0.8732639800822495 0.3282160259417204 0.8732639800822495 0.3282160259417204 0.12673601991775046 -0.3282160259417204
2.557E9 0.12458135785431268 -0.32572596685416305 0.8754186421456875 0.32572596685416305 0.8754186421456875 0.32572596685416305 0.12458135785431268 -0.32572596685416305
