!Murata Part Number: GRM0335C1E1R0WA01
!These Parameters are Measured in Series Mode Connection
!       o--ll--o
!Port1            Port2
!       o------o
!Operation Temp=25[degC], DC Bias Voltage=0[V]
!Freq. Start=100[MHz] Stop=20[GHz], 401[Steps]
!Data Generated on Jan 10, 2017
# Hz S RI R 50
!Freq.(Hz) S11(Real) S11(Imag) S21(Real) S21(Imag) S12(Real) S12(Imag) S22(Real) S22(Imag)
1.0E8 0.9960371781011674 -0.06258879116412329 0.003962821898832402 0.06258879116412329 0.003962821898832402 0.06258879116412329 0.9960371781011674 -0.06258879116412329
1.4975E8 0.9911545083766086 -0.09327823869074293 0.00884549162339139 0.09327823869074293 0.00884549162339139 0.09327823869074293 0.9911545083766086 -0.09327823869074293
1.995E8 0.9844019322845662 -0.12344087897574087 0.015598067715433766 0.12344087897574087 0.015598067715433766 0.12344087897574087 0.9844019322845662 -0.12344087897574087
2.4925E8 0.9758520736130875 -0.15291661675414372 0.0241479263869125 0.15291661675414372 0.0241479263869125 0.15291661675414372 0.9758520736130875 -0.15291661675414372
2.99E8 0.9655948729841597 -0.18155738391915882 0.03440512701584026 0.18155738391915882 0.03440512701584026 0.18155738391915882 0.9655948729841597 -0.18155738391915882
3.4875E8 0.953735295531278 -0.20922928893281997 0.04626470446872203 0.20922928893281997 0.04626470446872203 0.20922928893281997 0.953735295531278 -0.20922928893281997
3.985E8 0.940390764190632 -0.23581427999940213 0.05960923580936805 0.23581427999940213 0.05960923580936805 0.23581427999940213 0.940390764190632 -0.23581427999940213
4.4825E8 0.925688430029981 -0.26121129405696525 0.07431156997001898 0.26121129405696525 0.07431156997001898 0.26121129405696525 0.925688430029981 -0.26121129405696525
4.98E8 0.9097623896888591 -0.2853368904014865 0.09023761031114098 0.2853368904014865 0.09023761031114098 0.2853368904014865 0.9097623896888591 -0.2853368904014865
5.4775E8 0.8927509521672307 -0.3081253919699085 0.10724904783276927 0.3081253919699085 0.10724904783276927 0.3081253919699085 0.8927509521672307 -0.3081253919699085
5.975E8 0.8747940442000233 -0.32952857748028924 0.12520595579997668 0.32952857748028924 0.12520595579997668 0.32952857748028924 0.8747940442000233 -0.32952857748028924
6.4725E8 0.8560308268955069 -0.349514982821149 0.14396917310449298 0.349514982821149 0.14396917310449298 0.349514982821149 0.8560308268955069 -0.349514982821149
6.97E8 0.8365975778715318 -0.368068879928388 0.16340242212846826 0.368068879928388 0.16340242212846826 0.368068879928388 0.8365975778715318 -0.368068879928388
7.4675E8 0.8166258743603497 -0.3851890060285065 0.18337412563965022 0.3851890060285065 0.18337412563965022 0.3851890060285065 0.8166258743603497 -0.3851890060285065
7.965E8 0.7962410949901595 -0.4008871161081404 0.20375890500984045 0.4008871161081404 0.20375890500984045 0.4008871161081404 0.7962410949901595 -0.4008871161081404
8.4625E8 0.7755612421842093 -0.4151864276128508 0.22443875781579084 0.4151864276128508 0.22443875781579084 0.4151864276128508 0.7755612421842093 -0.4151864276128508
8.96E8 0.7546960739887902 -0.4281200196435856 0.24530392601120973 0.4281200196435856 0.24530392601120973 0.4281200196435856 0.7546960739887902 -0.4281200196435856
9.4575E8 0.733746523957534 -0.439729240289695 0.26625347604246596 0.439729240289695 0.26625347604246596 0.439729240289695 0.733746523957534 -0.439729240289695
9.955E8 0.7128043805029913 -0.45006216612399214 0.2871956194970088 0.45006216612399214 0.2871956194970088 0.45006216612399214 0.7128043805029913 -0.45006216612399214
1.04525E9 0.6919521926793571 -0.4591721480658013 0.3080478073206429 0.4591721480658013 0.3080478073206429 0.4591721480658013 0.6919521926793571 -0.4591721480658013
1.095E9 0.6712633673352173 -0.4671164684033878 0.32873663266478265 0.4671164684033878 0.32873663266478265 0.4671164684033878 0.6712633673352173 -0.4671164684033878
1.14475E9 0.6508024225425019 -0.4739551251944469 0.34919757745749813 0.4739551251944469 0.34919757745749813 0.4739551251944469 0.6508024225425019 -0.4739551251944469
1.1945E9 0.6306253637108874 -0.4797497528056348 0.3693746362891127 0.4797497528056348 0.3693746362891127 0.4797497528056348 0.6306253637108874 -0.4797497528056348
1.24425E9 0.6107801513950761 -0.4845626811416054 0.3892198486049239 0.4845626811416054 0.3892198486049239 0.4845626811416054 0.6107801513950761 -0.4845626811416054
1.294E9 0.5913072330997146 -0.48845613117061676 0.4086927669002856 0.48845613117061676 0.4086927669002856 0.48845613117061676 0.5913072330997146 -0.48845613117061676
1.34375E9 0.572240115048466 -0.4914915406149356 0.4277598849515341 0.4914915406149356 0.4277598849515341 0.4914915406149356 0.572240115048466 -0.4914915406149356
1.3935E9 0.553605953642671 -0.4937290110229744 0.446394046357329 0.4937290110229744 0.446394046357329 0.4937290110229744 0.553605953642671 -0.4937290110229744
1.44325E9 0.535426149990396 -0.49522686572841407 0.4645738500096041 0.49522686572841407 0.4645738500096041 0.49522686572841407 0.535426149990396 -0.49522686572841407
1.493E9 0.5177169342982769 -0.4960413072697128 0.48228306570172313 0.4960413072697128 0.48228306570172313 0.4960413072697128 0.5177169342982769 -0.4960413072697128
1.54275E9 0.5004899299979692 -0.496226162533445 0.49951007000203096 0.496226162533445 0.49951007000203096 0.496226162533445 0.5004899299979692 -0.496226162533445
1.5925E9 0.4837526901796881 -0.4958327040502364 0.516247309820312 0.4958327040502364 0.516247309820312 0.4958327040502364 0.4837526901796881 -0.4958327040502364
1.64225E9 0.4675092012130587 -0.49490953638286966 0.5324907987869412 0.49490953638286966 0.5324907987869412 0.49490953638286966 0.4675092012130587 -0.49490953638286966
1.692E9 0.45176035035931067 -0.49350253729205484 0.5482396496406892 0.49350253729205484 0.5482396496406892 0.49350253729205484 0.45176035035931067 -0.49350253729205484
1.74175E9 0.43650435574368995 -0.4916548442559498 0.56349564425631 0.4916548442559498 0.56349564425631 0.4916548442559498 0.43650435574368995 -0.4916548442559498
1.7915E9 0.4217371582972569 -0.48940687788316795 0.5782628417027431 0.48940687788316795 0.5782628417027431 0.48940687788316795 0.4217371582972569 -0.48940687788316795
1.84125E9 0.4074527762323199 -0.4867963947411563 0.5925472237676801 0.4867963947411563 0.5925472237676801 0.4867963947411563 0.4074527762323199 -0.4867963947411563
1.891E9 0.39364362332620406 -0.48385856308255876 0.6063563766737957 0.48385856308255876 0.6063563766737957 0.48385856308255876 0.39364362332620406 -0.48385856308255876
1.94075E9 0.3803007927933142 -0.4806260558638199 0.6196992072066858 0.4806260558638199 0.6196992072066858 0.4806260558638199 0.3803007927933142 -0.4806260558638199
1.9905E9 0.3674143088622094 -0.47712915629503144 0.6325856911377907 0.47712915629503144 0.6325856911377907 0.47712915629503144 0.3674143088622094 -0.47712915629503144
2.04025E9 0.3549733483756552 -0.4733958719277698 0.6450266516243447 0.4733958719277698 0.6450266516243447 0.4733958719277698 0.3549733483756552 -0.4733958719277698
2.09E9 0.3429664348263141 -0.46945205397417106 0.657033565173686 0.46945205397417106 0.657033565173686 0.46945205397417106 0.3429664348263141 -0.46945205397417106
2.13975E9 0.3313816072536155 -0.46532151915571857 0.6686183927463846 0.46532151915571857 0.6686183927463846 0.46532151915571857 0.3313816072536155 -0.46532151915571857
2.1895E9 0.32020656637924716 -0.461026171907165 0.679793433620753 0.461026171907165 0.679793433620753 0.461026171907165 0.32020656637924716 -0.461026171907165
2.23925E9 0.30942880026671776 -0.45658612521454656 0.6905711997332822 0.45658612521454656 0.6905711997332822 0.45658612521454656 0.30942880026671776 -0.45658612521454656
2.289E9 0.2990356916684561 -0.45201981875248914 0.7009643083315439 0.45201981875248914 0.7009643083315439 0.45201981875248914 0.2990356916684561 -0.45201981875248914
2.33875E9 0.2890146090829232 -0.44734413331153666 0.7109853909170766 0.44734413331153666 0.7109853909170766 0.44734413331153666 0.2890146090829232 -0.44734413331153666
2.3885E9 0.27935298339281966 -0.44257450077786953 0.7206470166071802 0.44257450077786953 0.7206470166071802 0.44257450077786953 0.27935298339281966 -0.44257450077786953
2.43825E9 0.27003837180020723 -0.4377250091521074 0.7299616281997927 0.4377250091521074 0.7299616281997927 0.4377250091521074 0.27003837180020723 -0.4377250091521074
2.488E9 0.26105851062013635 -0.43280850227718387 0.7389414893798636 0.43280850227718387 0.7389414893798636 0.43280850227718387 0.26105851062013635 -0.43280850227718387
2.53775E9 0.25240135834466465 -0.42783667409331705 0.7475986416553352 0.42783667409331705 0.7475986416553352 0.42783667409331705 0.25240135834466465 -0.42783667409331705
2.5875E9 0.24405513024642572 -0.42282015735611556 0.755944869753574 0.42282015735611556 0.755944869753574 0.42282015735611556 0.24405513024642572 -0.42282015735611556
2.63725E9 0.2360083256567355 -0.41776860684655215 0.7639916743432644 0.41776860684655215 0.7639916743432644 0.41776860684655215 0.2360083256567355 -0.41776860684655215
2.687E9 0.22824974892853014 -0.4126907771730192 0.7717502510714698 0.4126907771730192 0.7717502510714698 0.4126907771730192 0.22824974892853014 -0.4126907771730192
2.73675E9 0.22076852497963811 -0.40759459531956643 0.7792314750203617 0.40759459531956643 0.7792314750203617 0.40759459531956643 0.22076852497963811 -0.40759459531956643
2.7865E9 0.21355411020705717 -0.4024872281338124 0.7864458897929428 0.4024872281338124 0.7864458897929428 0.4024872281338124 0.21355411020705717 -0.4024872281338124
2.83625E9 0.20659629946782046 -0.3973751449755888 0.7934037005321795 0.3973751449755888 0.7934037005321795 0.3973751449755888 0.20659629946782046 -0.3973751449755888
2.886E9 0.199885229736288 -0.3922641757653833 0.8001147702637118 0.3922641757653833 0.8001147702637118 0.3922641757653833 0.199885229736288 -0.3922641757653833
2.93575E9 0.1934113809707853 -0.387159564681996 0.8065886190292149 0.387159564681996 0.8065886190292149 0.387159564681996 0.1934113809707853 -0.387159564681996
2.9855E9 0.18716557465381542 -0.3820660197631321 0.8128344253461849 0.3820660197631321 0.8128344253461849 0.3820660197631321 0.18716557465381542 -0.3820660197631321
3.03525E9 0.1811389704089753 -0.376987758662234 0.8188610295910248 0.376987758662234 0.8188610295910248 0.376987758662234 0.1811389704089753 -0.376987758662234
3.085E9 0.17532306104356601 -0.37192855081082177 0.8246769389564339 0.37192855081082177 0.8246769389564339 0.37192855081082177 0.17532306104356601 -0.37192855081082177
3.13475E9 0.16970966631806092 -0.3668917562288637 0.830290333681939 0.3668917562288637 0.830290333681939 0.3668917562288637 0.16970966631806092 -0.3668917562288637
3.1845E9 0.16429092570148562 -0.3618803612169686 0.8357090742985144 0.3618803612169686 0.8357090742985144 0.3618803612169686 0.16429092570148562 -0.3618803612169686
3.23425E9 0.15905929033478308 -0.3568970111540865 0.8409407096652171 0.3568970111540865 0.8409407096652171 0.3568970111540865 0.15905929033478308 -0.3568970111540865
3.284E9 0.15400751439184893 -0.35194404061338913 0.8459924856081511 0.35194404061338913 0.8459924856081511 0.35194404061338913 0.15400751439184893 -0.35194404061338913
3.33375E9 0.14912864599963027 -0.34702350099746465 0.8508713540003698 0.34702350099746465 0.8508713540003698 0.34702350099746465 0.14912864599963027 -0.34702350099746465
3.3835E9 0.14441601785401942 -0.3421371858821964 0.8555839821459806 0.3421371858821964 0.8555839821459806 0.3421371858821964 0.14441601785401942 -0.3421371858821964
3.43325E9 0.139863237646834 -0.33728665424693616 0.860136762353166 0.33728665424693616 0.860136762353166 0.33728665424693616 0.139863237646834 -0.33728665424693616
3.483E9 0.13546417840057487 -0.33247325175700276 0.8645358215994253 0.33247325175700276 0.8645358215994253 0.33247325175700276 0.13546417840057487 -0.33247325175700276
3.53275E9 0.1312129687915531 -0.3276981302532693 0.868787031208447 0.3276981302532693 0.868787031208447 0.3276981302532693 0.1312129687915531 -0.3276981302532693
3.5825E9 0.12710398352807908 -0.3229622655927434 0.8728960164719208 0.3229622655927434 0.8728960164719208 0.3229622655927434 0.12710398352807908 -0.3229622655927434
3.63225E9 0.12313183383842695 -0.3182664739736537 0.8768681661615733 0.3182664739736537 0.8768681661615733 0.3182664739736537 0.12313183383842695 -0.3182664739736537
3.682E9 0.11929135811300212 -0.31361142686869004 0.8807086418869977 0.31361142686869004 0.8807086418869977 0.31361142686869004 0.11929135811300212 -0.31361142686869004
3.73175E9 0.11557761273631995 -0.3089976646807121 0.8844223872636799 0.3089976646807121 0.8844223872636799 0.3089976646807121 0.11557761273631995 -0.3089976646807121
3.7815E9 0.11198586313686357 -0.3044256092264606 0.8880141368631363 0.3044256092264606 0.8880141368631363 0.3044256092264606 0.11198586313686357 -0.3044256092264606
3.83125E9 0.10851157507647337 -0.2998955751455822 0.8914884249235268 0.2998955751455822 0.8914884249235268 0.2998955751455822 0.10851157507647337 -0.2998955751455822
3.881E9 0.10515040619546327 -0.29540778032458787 0.8948495938045367 0.29540778032458787 0.8948495938045367 0.29540778032458787 0.10515040619546327 -0.29540778032458787
3.93075E9 0.1018981978250493 -0.2909623554182109 0.8981018021749505 0.2909623554182109 0.8981018021749505 0.2909623554182109 0.1018981978250493 -0.2909623554182109
3.9805E9 0.09875096707478775 -0.28655935254397125 0.9012490329252124 0.28655935254397125 0.9012490329252124 0.28655935254397125 0.09875096707478775 -0.28655935254397125
4.03025E9 0.09570489919946483 -0.282198753219593 0.9042951008005352 0.282198753219593 0.9042951008005352 0.282198753219593 0.09570489919946483 -0.282198753219593
4.08E9 0.09275634024716277 -0.2778804756072128 0.9072436597528374 0.2778804756072128 0.9072436597528374 0.2778804756072128 0.09275634024716277 -0.2778804756072128
4.12975E9 0.08990178998797496 -0.2736043811230389 0.9100982100120252 0.2736043811230389 0.9100982100120252 0.2736043811230389 0.08990178998797496 -0.2736043811230389
4.1795E9 0.08713789512099752 -0.2693702804662651 0.9128621048790028 0.2693702804662651 0.9128621048790028 0.2693702804662651 0.08713789512099752 -0.2693702804662651
4.22925E9 0.08446144275571511 -0.2651779391165548 0.915538557244285 0.2651779391165548 0.915538557244285 0.2651779391165548 0.08446144275571511 -0.2651779391165548
4.279E9 0.08186935416268802 -0.26102708234529126 0.918130645837312 0.26102708234529126 0.918130645837312 0.26102708234529126 0.08186935416268802 -0.26102708234529126
4.32875E9 0.0793586787874853 -0.25691739978199146 0.9206413212125147 0.25691739978199146 0.9206413212125147 0.25691739978199146 0.0793586787874853 -0.25691739978199146
4.3785E9 0.07692658852106148 -0.25284854957380315 0.9230734114789385 0.25284854957380315 0.9230734114789385 0.25284854957380315 0.07692658852106148 -0.25284854957380315
4.42825E9 0.07457037221920484 -0.24882016217280123 0.925429627780795 0.24882016217280123 0.925429627780795 0.24882016217280123 0.07457037221920484 -0.24882016217280123
4.478E9 0.07228743046327321 -0.24483184378286715 0.9277125695367269 0.24483184378286715 0.9277125695367269 0.24483184378286715 0.07228743046327321 -0.24483184378286715
4.52775E9 0.07007527055414514 -0.24088317949524296 0.9299247294458547 0.24088317949524296 0.9299247294458547 0.24088317949524296 0.07007527055414514 -0.24088317949524296
4.5775E9 0.06793150173113872 -0.23697373613938713 0.9320684982688611 0.23697373613938713 0.9320684982688611 0.23697373613938713 0.06793150173113872 -0.23697373613938713
4.62725E9 0.06585383060756227 -0.2331030648734986 0.9341461693924378 0.2331030648734986 0.9341461693924378 0.2331030648734986 0.06585383060756227 -0.2331030648734986
4.677E9 0.06384005681454738 -0.22927070353700577 0.9361599431854526 0.22927070353700577 0.9361599431854526 0.22927070353700577 0.06384005681454738 -0.22927070353700577
4.72675E9 0.061888068844865675 -0.22547617878542575 0.9381119311551344 0.22547617878542575 0.9381119311551344 0.22547617878542575 0.061888068844865675 -0.22547617878542575
4.7765E9 0.05999584008852767 -0.2217190080262608 0.9400041599114722 0.2217190080262608 0.9400041599114722 0.2217190080262608 0.05999584008852767 -0.2217190080262608
4.82625E9 0.058161425052103644 -0.21799870117301692 0.9418385749478964 0.21799870117301692 0.9418385749478964 0.21799870117301692 0.058161425052103644 -0.21799870117301692
4.876E9 0.056382955753876224 -0.21431476223297272 0.9436170442461237 0.21431476223297272 0.9436170442461237 0.21431476223297272 0.056382955753876224 -0.21431476223297272
4.92575E9 0.05465863828713465 -0.2106666907430032 0.9453413617128653 0.2106666907430032 0.9453413617128653 0.2106666907430032 0.05465863828713465 -0.2106666907430032
4.9755E9 0.05298674954413424 -0.20705398306654418 0.9470132504558658 0.20705398306654418 0.9470132504558658 0.20705398306654418 0.05298674954413424 -0.20705398306654418
5.02525E9 0.05136563409347772 -0.20347613356367308 0.9486343659065223 0.20347613356367308 0.9486343659065223 0.20347613356367308 0.05136563409347772 -0.20347613356367308
5.075E9 0.04979370120391553 -0.19993263564526556 0.9502062987960845 0.19993263564526556 0.9502062987960845 0.19993263564526556 0.04979370120391553 -0.19993263564526556
5.12475E9 0.04826942200780978 -0.19642298272125622 0.9517305779921904 0.19642298272125622 0.9517305779921904 0.19642298272125622 0.04826942200780978 -0.19642298272125622
5.1745E9 0.046791326797758 -0.19294666905218227 0.9532086732022419 0.19294666905218227 0.9532086732022419 0.19294666905218227 0.046791326797758 -0.19294666905218227
5.22425E9 0.045358002450125064 -0.18950319051240966 0.9546419975498751 0.18950319051240966 0.9546419975498751 0.18950319051240966 0.045358002450125064 -0.18950319051240966
5.274E9 0.04396808996948386 -0.18609204527273104 0.956031910030516 0.18609204527273104 0.956031910030516 0.18609204527273104 0.04396808996948386 -0.18609204527273104
5.32375E9 0.04262028214821275 -0.1827127344093716 0.9573797178517872 0.1827127344093716 0.9573797178517872 0.1827127344093716 0.04262028214821275 -0.1827127344093716
5.3735E9 0.04131332133574479 -0.17936476244584576 0.9586866786642549 0.17936476244584576 0.9586866786642549 0.17936476244584576 0.04131332133574479 -0.17936476244584576
5.42325E9 0.040045997312202306 -0.17604763783356062 0.9599540026877978 0.17604763783356062 0.9599540026877978 0.17604763783356062 0.040045997312202306 -0.17604763783356062
5.473E9 0.038817145261385 -0.17276087337656384 0.9611828547386151 0.17276087337656384 0.9611828547386151 0.17276087337656384 0.038817145261385 -0.17276087337656384
5.52275E9 0.03762564383830852 -0.16950398660537924 0.9623743561616913 0.16950398660537924 0.9623743561616913 0.16950398660537924 0.03762564383830852 -0.16950398660537924
5.5725E9 0.03647041332670911 -0.16627650010445166 0.9635295866732909 0.16627650010445166 0.9635295866732909 0.16627650010445166 0.03647041332670911 -0.16627650010445166
5.62225E9 0.03535041388214618 -0.16307794179734575 0.9646495861178537 0.16307794179734575 0.9646495861178537 0.16307794179734575 0.03535041388214618 -0.16307794179734575
5.672E9 0.03426464385653786 -0.15990784519348797 0.965735356143462 0.15990784519348797 0.965735356143462 0.15990784519348797 0.03426464385653786 -0.15990784519348797
5.72175E9 0.03321213820016505 -0.15676574959992567 0.9667878617998349 0.15676574959992567 0.9667878617998349 0.15676574959992567 0.03321213820016505 -0.15676574959992567
5.7715E9 0.032191966937368595 -0.15365120030127993 0.9678080330626315 0.15365120030127993 0.9678080330626315 0.15365120030127993 0.032191966937368595 -0.15365120030127993
5.82125E9 0.031203233712347594 -0.15056374871080266 0.9687967662876524 0.15056374871080266 0.9687967662876524 0.15056374871080266 0.031203233712347594 -0.15056374871080266
5.871E9 0.030245074401642293 -0.14750295249520246 0.9697549255983576 0.14750295249520246 0.9697549255983576 0.14750295249520246 0.030245074401642293 -0.14750295249520246
