!Murata Part Number: GRM0335C1E2R2BA01
!These Parameters are Measured in Series Mode Connection
!       o--ll--o
!Port1            Port2
!       o------o
!Operation Temp=25[degC], DC Bias Voltage=0[V]
!Freq. Start=100[MHz] Stop=8.5[GHz], 401[Steps]
!Data Generated on Jan 10, 2017
# Hz S RI R 50
!Freq.(Hz) S11(Real) S11(Imag) S21(Real) S21(Imag) S12(Real) S12(Imag) S22(Real) S22(Imag)
1.0E8 0.9811954908302206 -0.13564738920226616 0.01880450916977939 0.13564738920226616 0.01880450916977939 0.13564738920226616 0.9811954908302206 -0.13564738920226616
1.21E8 0.9727028259637777 -0.16272196953037618 0.027297174036222414 0.16272196953037618 0.027297174036222414 0.16272196953037618 0.9727028259637777 -0.16272196953037618
1.42E8 0.9627828084122358 -0.1890282692212292 0.03721719158776406 0.1890282692212292 0.03721719158776406 0.1890282692212292 0.9627828084122358 -0.1890282692212292
1.63E8 0.9515250560463928 -0.21446283919836753 0.04847494395360726 0.21446283919836753 0.04847494395360726 0.21446283919836753 0.9515250560463928 -0.21446283919836753
1.84E8 0.9390279479913117 -0.23893478115852088 0.06097205200868816 0.23893478115852088 0.06097205200868816 0.23893478115852088 0.9390279479913117 -0.23893478115852088
2.05E8 0.9253966183968799 -0.26236644604538545 0.07460338160312013 0.26236644604538545 0.07460338160312013 0.26236644604538545 0.9253966183968799 -0.26236644604538545
2.26E8 0.9107409382348832 -0.2846937816905862 0.08925906176511678 0.2846937816905862 0.08925906176511678 0.2846937816905862 0.9107409382348832 -0.2846937816905862
2.47E8 0.8951735493692906 -0.30586634899565995 0.10482645063070938 0.30586634899565995 0.10482645063070938 0.30586634899565995 0.8951735493692906 -0.30586634899565995
2.68E8 0.8788080064063378 -0.32584703763370493 0.12119199359366224 0.32584703763370493 0.12119199359366224 0.32584703763370493 0.8788080064063378 -0.32584703763370493
2.89E8 0.8617570712666105 -0.34461152086186403 0.13824292873338948 0.34461152086186403 0.13824292873338948 0.34461152086186403 0.8617570712666105 -0.34461152086186403
3.1E8 0.8441311939526955 -0.36214749452165534 0.15586880604730446 0.36214749452165534 0.15586880604730446 0.36214749452165534 0.8441311939526955 -0.36214749452165534
3.31E8 0.8260372014585956 -0.37845374778684987 0.17396279854140434 0.37845374778684987 0.17396279854140434 0.37845374778684987 0.8260372014585956 -0.37845374778684987
3.52E8 0.8075772058896203 -0.3935391130237262 0.19242279411037969 0.3935391130237262 0.19242279411037969 0.3935391130237262 0.8075772058896203 -0.3935391130237262
3.73E8 0.7888477331694738 -0.40742133971784084 0.21115226683052615 0.40742133971784084 0.21115226683052615 0.40742133971784084 0.7888477331694738 -0.40742133971784084
3.94E8 0.7699390655559992 -0.4201259333268031 0.23006093444400078 0.4201259333268031 0.23006093444400078 0.4201259333268031 0.7699390655559992 -0.4201259333268031
4.15E8 0.7509347847443987 -0.43168499468335586 0.24906521525560127 0.43168499468335586 0.24906521525560127 0.43168499468335586 0.7509347847443987 -0.43168499468335586
4.36E8 0.731911497631224 -0.4421360897058111 0.26808850236877596 0.4421360897058111 0.26808850236877596 0.4421360897058111 0.731911497631224 -0.4421360897058111
4.57E8 0.7129387237492274 -0.45152117311504897 0.2870612762507725 0.45152117311504897 0.2870612762507725 0.45152117311504897 0.7129387237492274 -0.45152117311504897
4.78E8 0.6940789217834443 -0.45988558396505824 0.30592107821655573 0.45988558396505824 0.30592107821655573 0.45988558396505824 0.6940789217834443 -0.45988558396505824
4.99E8 0.6753876322133763 -0.46727712533227445 0.32461236778662383 0.46727712533227445 0.32461236778662383 0.46727712533227445 0.6753876322133763 -0.46727712533227445
5.2E8 0.6569137137443077 -0.47374523565479626 0.34308628625569215 0.47374523565479626 0.34308628625569215 0.47374523565479626 0.6569137137443077 -0.47374523565479626
5.41E8 0.6386996525439387 -0.479340255064818 0.36130034745606115 0.479340255064818 0.36130034745606115 0.479340255064818 0.6386996525439387 -0.479340255064818
5.62E8 0.6207819251584882 -0.48411278665063484 0.37921807484151177 0.48411278665063484 0.37921807484151177 0.48411278665063484 0.6207819251584882 -0.48411278665063484
5.83E8 0.6031913981439798 -0.4881131499028447 0.39680860185602024 0.4881131499028447 0.39680860185602024 0.4881131499028447 0.6031913981439798 -0.4881131499028447
6.04E8 0.5859537497466802 -0.4913909215919873 0.4140462502533198 0.4913909215919873 0.4140462502533198 0.4913909215919873 0.5859537497466802 -0.4913909215919873
6.25E8 0.5690899012701276 -0.49399455791843316 0.4309100987298723 0.49399455791843316 0.4309100987298723 0.49399455791843316 0.5690899012701276 -0.49399455791843316
6.46E8 0.5526164479771589 -0.49597109088465846 0.4473835520228412 0.49597109088465846 0.4473835520228412 0.49597109088465846 0.5526164479771589 -0.49597109088465846
6.67E8 0.5365460814262153 -0.4973658913765445 0.46345391857378465 0.4973658913765445 0.46345391857378465 0.4973658913765445 0.5365460814262153 -0.4973658913765445
6.88E8 0.5208879969899339 -0.4982224913181452 0.4791120030100661 0.4982224913181452 0.4791120030100661 0.4982224913181452 0.5208879969899339 -0.4982224913181452
7.09E8 0.505648281929234 -0.4985824574043192 0.4943517180707661 0.4985824574043192 0.4943517180707661 0.4985824574043192 0.505648281929234 -0.4985824574043192
7.3E8 0.4908302807922885 -0.4984853092478298 0.5091697192077114 0.4984853092478298 0.5091697192077114 0.4984853092478298 0.4908302807922885 -0.4984853092478298
7.51E8 0.47643493608109816 -0.49796847524221144 0.523565063918902 0.49796847524221144 0.523565063918902 0.49796847524221144 0.47643493608109816 -0.49796847524221144
7.72E8 0.46246110309289795 -0.497067279989595 0.5375388969071021 0.497067279989595 0.5375388969071021 0.497067279989595 0.46246110309289795 -0.497067279989595
7.93E8 0.44890583861842115 -0.4958149577342549 0.5510941613815791 0.4958149577342549 0.5510941613815791 0.4958149577342549 0.44890583861842115 -0.4958149577342549
8.14E8 0.43576466378561524 -0.49424268684731215 0.5642353362143848 0.49424268684731215 0.5642353362143848 0.49424268684731215 0.43576466378561524 -0.49424268684731215
8.35E8 0.4230318017982397 -0.4923796410029821 0.5769681982017604 0.4923796410029821 0.5769681982017604 0.4923796410029821 0.4230318017982397 -0.4923796410029821
8.56E8 0.41070039165572164 -0.4902530532557049 0.5892996083442783 0.4902530532557049 0.5892996083442783 0.4902530532557049 0.41070039165572164 -0.4902530532557049
8.77E8 0.3987626791743649 -0.48788828975958265 0.601237320825635 0.48788828975958265 0.601237320825635 0.48788828975958265 0.3987626791743649 -0.48788828975958265
8.98E8 0.3872101867792618 -0.4853089303601216 0.612789813220738 0.4853089303601216 0.612789813220738 0.4853089303601216 0.3872101867792618 -0.4853089303601216
9.19E8 0.3760338636177431 -0.48253685373008587 0.6239661363822568 0.48253685373008587 0.6239661363822568 0.48253685373008587 0.3760338636177431 -0.48253685373008587
9.4E8 0.36522421757344986 -0.4795923251154892 0.6347757824265501 0.4795923251154892 0.6347757824265501 0.4795923251154892 0.36522421757344986 -0.4795923251154892
9.61E8 0.3547714307474991 -0.47649408510539926 0.6452285692525009 0.47649408510539926 0.6452285692525009 0.47649408510539926 0.3547714307474991 -0.47649408510539926
9.82E8 0.3446654599301609 -0.4732594381425424 0.6553345400698389 0.4732594381425424 0.6553345400698389 0.4732594381425424 0.3446654599301609 -0.4732594381425424
1.003E9 0.3348961235215544 -0.4699043397537371 0.6651038764784457 0.4699043397537371 0.6651038764784457 0.4699043397537371 0.3348961235215544 -0.4699043397537371
1.024E9 0.32545317628005865 -0.46644348170343075 0.6745468237199412 0.46644348170343075 0.6745468237199412 0.46644348170343075 0.32545317628005865 -0.46644348170343075
1.045E9 0.3163263731880365 -0.4628903744638128 0.6836736268119634 0.4628903744638128 0.6836736268119634 0.4628903744638128 0.3163263731880365 -0.4628903744638128
1.066E9 0.30750552363041017 -0.4592574265547972 0.6924944763695898 0.4592574265547972 0.6924944763695898 0.4592574265547972 0.30750552363041017 -0.4592574265547972
1.087E9 0.29898053698603133 -0.4555560204402761 0.7010194630139686 0.4555560204402761 0.7010194630139686 0.4555560204402761 0.29898053698603133 -0.4555560204402761
1.108E9 0.2907414606371359 -0.4517965847767899 0.7092585393628641 0.4517965847767899 0.7092585393628641 0.4517965847767899 0.2907414606371359 -0.4517965847767899
1.129E9 0.2827785113103587 -0.44798866290032313 0.7172214886896413 0.44798866290032313 0.7172214886896413 0.44798866290032313 0.2827785113103587 -0.44798866290032313
1.15E9 0.27508210057507865 -0.44414097750917503 0.7249178994249215 0.44414097750917503 0.7249178994249215 0.44414097750917503 0.27508210057507865 -0.44414097750917503
1.171E9 0.26764285524213843 -0.44026149155832656 0.7323571447578616 0.44026149155832656 0.7323571447578616 0.44026149155832656 0.26764285524213843 -0.44026149155832656
1.192E9 0.2604516333287551 -0.4363574654257365 0.7395483666712449 0.4363574654257365 0.7395483666712449 0.4363574654257365 0.2604516333287551 -0.4363574654257365
1.213E9 0.25349953618396626 -0.4324355104455443 0.7465004638160339 0.4324355104455443 0.7465004638160339 0.4324355104455443 0.25349953618396626 -0.4324355104455443
1.234E9 0.2467779173032725 -0.428501638928977 0.7532220826967274 0.428501638928977 0.7532220826967274 0.428501638928977 0.2467779173032725 -0.428501638928977
1.255E9 0.2402783883011849 -0.42456131081239074 0.7597216116988151 0.42456131081239074 0.7597216116988151 0.42456131081239074 0.2402783883011849 -0.42456131081239074
1.276E9 0.2339928224559281 -0.42061947708458647 0.7660071775440721 0.42061947708458647 0.7660071775440721 0.42061947708458647 0.2339928224559281 -0.42061947708458647
1.297E9 0.227913356191342 -0.4166806201534723 0.7720866438086581 0.4166806201534723 0.7720866438086581 0.4166806201534723 0.227913356191342 -0.4166806201534723
1.318E9 0.22203238881674286 -0.4127487913162034 0.7779676111832571 0.4127487913162034 0.7779676111832571 0.4127487913162034 0.22203238881674286 -0.4127487913162034
1.339E9 0.21634258080579985 -0.4088276454979318 0.7836574191942002 0.4088276454979318 0.7836574191942002 0.4088276454979318 0.21634258080579985 -0.4088276454979318
1.36E9 0.21083685086001408 -0.4049204734228932 0.7891631491399859 0.4049204734228932 0.7891631491399859 0.4049204734228932 0.21083685086001408 -0.4049204734228932
1.381E9 0.20550837197079366 -0.4010302313783031 0.7944916280292063 0.4010302313783031 0.7944916280292063 0.4010302313783031 0.20550837197079366 -0.4010302313783031
1.402E9 0.20035056666605688 -0.3971595687268751 0.7996494333339431 0.3971595687268751 0.7996494333339431 0.3971595687268751 0.20035056666605688 -0.3971595687268751
1.423E9 0.19535710160244155 -0.39331085331810384 0.8046428983975586 0.39331085331810384 0.8046428983975586 0.39331085331810384 0.19535710160244155 -0.39331085331810384
1.444E9 0.19052188164223396 -0.3894861949420635 0.8094781183577661 0.3894861949420635 0.8094781183577661 0.3894861949420635 0.19052188164223396 -0.3894861949420635
1.465E9 0.18583904353476824 -0.3856874669626092 0.8141609564652319 0.3856874669626092 0.8141609564652319 0.3856874669626092 0.18583904353476824 -0.3856874669626092
1.486E9 0.18130294930501453 -0.38191632625974337 0.8186970506949856 0.38191632625974337 0.8186970506949856 0.38191632625974337 0.18130294930501453 -0.38191632625974337
1.507E9 0.1769081794371245 -0.3781742316036676 0.8230918205628757 0.3781742316036676 0.8230918205628757 0.3781742316036676 0.1769081794371245 -0.3781742316036676
1.528E9 0.17264952592760807 -0.3744624605758093 0.8273504740723919 0.3744624605758093 0.8273504740723919 0.3744624605758093 0.17264952592760807 -0.3744624605758093
1.549E9 0.16852198527136475 -0.37078212514499104 0.8314780147286351 0.37078212514499104 0.8314780147286351 0.37078212514499104 0.16852198527136475 -0.37078212514499104
1.57E9 0.16452075143381117 -0.3671341859999685 0.8354792485661887 0.3671341859999685 0.8354792485661887 0.3671341859999685 0.16452075143381117 -0.3671341859999685
1.591E9 0.1606412088536506 -0.3635194657328512 0.8393587911463496 0.3635194657328512 0.8393587911463496 0.3635194657328512 0.1606412088536506 -0.3635194657328512
1.612E9 0.1568789255132794 -0.3599386609614841 0.8431210744867205 0.3599386609614841 0.8431210744867205 0.3599386609614841 0.1568789255132794 -0.3599386609614841
1.633E9 0.1532296461072817 -0.3563923534727238 0.8467703538927183 0.3563923534727238 0.8467703538927183 0.3563923534727238 0.1532296461072817 -0.3563923534727238
1.654E9 0.1496892853338003 -0.3528810204627125 0.8503107146661996 0.3528810204627125 0.8503107146661996 0.3528810204627125 0.1496892853338003 -0.3528810204627125
1.675E9 0.14625392132869436 -0.3494050439447453 0.8537460786713057 0.3494050439447453 0.8537460786713057 0.3494050439447453 0.14625392132869436 -0.3494050439447453
1.696E9 0.14291978925818824 -0.3459647193901319 0.857080210741812 0.3459647193901319 0.857080210741812 0.3459647193901319 0.14291978925818824 -0.3459647193901319
1.717E9 0.13968327508211953 -0.3425602636625894 0.8603167249178806 0.3425602636625894 0.8603167249178806 0.3425602636625894 0.13968327508211953 -0.3425602636625894
1.738E9 0.136540909496808 -0.33919182230213657 0.8634590905031918 0.33919182230213657 0.8634590905031918 0.33919182230213657 0.136540909496808 -0.33919182230213657
1.759E9 0.13348936206394418 -0.3358594762102031 0.8665106379360556 0.3358594762102031 0.8665106379360556 0.3358594762102031 0.13348936206394418 -0.3358594762102031
1.78E9 0.13052543552966825 -0.3325632477836981 0.8694745644703318 0.3325632477836981 0.8694745644703318 0.3325632477836981 0.13052543552966825 -0.3325632477836981
1.801E9 0.12764606033612902 -0.32930310654209083 0.872353939663871 0.32930310654209083 0.872353939663871 0.32930310654209083 0.12764606033612902 -0.32930310654209083
1.822E9 0.12484828932622784 -0.32607897428812377 0.8751517106737722 0.32607897428812377 0.8751517106737722 0.32607897428812377 0.12484828932622784 -0.32607897428812377
1.843E9 0.12212929264093358 -0.32289072983959927 0.8778707073590665 0.32289072983959927 0.8778707073590665 0.32289072983959927 0.12212929264093358 -0.32289072983959927
1.864E9 0.11948635280745937 -0.31973821336673636 0.8805136471925408 0.31973821336673636 0.8805136471925408 0.31973821336673636 0.11948635280745937 -0.31973821336673636
1.885E9 0.11691686001568782 -0.31662123036686324 0.8830831399843124 0.31662123036686324 0.8830831399843124 0.31662123036686324 0.11691686001568782 -0.31662123036686324
1.906E9 0.11441830757950243 -0.31353955530569544 0.8855816924204977 0.31353955530569544 0.8855816924204977 0.31353955530569544 0.11441830757950243 -0.31353955530569544
1.927E9 0.11198828757909281 -0.3104929349521203 0.8880117124209073 0.3104929349521203 0.8880117124209073 0.3104929349521203 0.11198828757909281 -0.3104929349521203
1.948E9 0.10962448667983658 -0.30748109143125796 0.8903755133201634 0.30748109143125796 0.8903755133201634 0.30748109143125796 0.10962448667983658 -0.30748109143125796
1.969E9 0.10732468212300564 -0.3045037250185922 0.8926753178769944 0.3045037250185922 0.8926753178769944 0.3045037250185922 0.10732468212300564 -0.3045037250185922
1.99E9 0.10508673788327476 -0.30156051669613343 0.8949132621167253 0.30156051669613343 0.8949132621167253 0.30156051669613343 0.10508673788327476 -0.30156051669613343
2.011E9 0.10290860098782284 -0.2986511304898983 0.8970913990121772 0.2986511304898983 0.8970913990121772 0.2986511304898983 0.10290860098782284 -0.2986511304898983
2.032E9 0.10078829799168987 -0.2957752156064344 0.8992117020083102 0.2957752156064344 0.8992117020083102 0.2957752156064344 0.10078829799168987 -0.2957752156064344
2.053E9 0.09872393160398743 -0.29293240838470025 0.9012760683960124 0.29293240838470025 0.9012760683960124 0.29293240838470025 0.09872393160398743 -0.29293240838470025
2.074E9 0.09671367745953266 -0.29012233407829063 0.9032863225404674 0.29012233407829063 0.9032863225404674 0.29012233407829063 0.09671367745953266 -0.29012233407829063
2.095E9 0.09475578103049416 -0.28734460848179316 0.9052442189695058 0.28734460848179316 0.9052442189695058 0.28734460848179316 0.09475578103049416 -0.28734460848179316
2.116E9 0.09284855467268564 -0.28459883941395253 0.9071514453273146 0.28459883941395253 0.9071514453273146 0.28459883941395253 0.09284855467268564 -0.28459883941395253
2.137E9 0.09099037480121426 -0.28188462806929226 0.9090096251987857 0.28188462806929226 0.9090096251987857 0.28188462806929226 0.09099037480121426 -0.28188462806929226
2.158E9 0.08917967919028966 -0.27920157024891157 0.9108203208097104 0.27920157024891157 0.9108203208097104 0.27920157024891157 0.08917967919028966 -0.27920157024891157
2.179E9 0.08741496439210701 -0.2765492574803037 0.9125850356078928 0.2765492574803037 0.9125850356078928 0.2765492574803037 0.08741496439210701 -0.2765492574803037
2.2E9 0.08569478326984727 -0.27392727803525585 0.9143052167301529 0.27392727803525585 0.9143052167301529 0.27392727803525585 0.08569478326984727 -0.27392727803525585
2.221E9 0.08401774263997036 -0.27133521785415465 0.9159822573600297 0.27133521785415465 0.9159822573600297 0.27133521785415465 0.08401774263997036 -0.27133521785415465
2.242E9 0.08238250101912299 -0.26877266138435585 0.9176174989808771 0.26877266138435585 0.9176174989808771 0.26877266138435585 0.08238250101912299 -0.26877266138435585
2.263E9 0.0807877664711298 -0.2662391923396559 0.9192122335288702 0.2662391923396559 0.9192122335288702 0.2662391923396559 0.0807877664711298 -0.2662391923396559
2.284E9 0.0792322945496914 -0.2637343943873416 0.9207677054503086 0.2637343943873416 0.9207677054503086 0.2637343943873416 0.0792322945496914 -0.2637343943873416
2.305E9 0.07771488633256435 -0.26125785176876654 0.9222851136674356 0.26125785176876654 0.9222851136674356 0.26125785176876654 0.07771488633256435 -0.26125785176876654
2.326E9 0.07623438654315767 -0.2588091498589342 0.9237656134568422 0.2588091498589342 0.9237656134568422 0.2588091498589342 0.07623438654315767 -0.2588091498589342
2.347E9 0.07478968175562993 -0.25638787567011556 0.9252103182443702 0.25638787567011556 0.9252103182443702 0.25638787567011556 0.07478968175562993 -0.25638787567011556
2.368E9 0.0733796986797292 -0.2539936183041362 0.9266203013202707 0.2539936183041362 0.9266203013202707 0.2539936183041362 0.0733796986797292 -0.2539936183041362
2.389E9 0.07200340252176604 -0.25162596935758985 0.9279965974782339 0.25162596935758985 0.9279965974782339 0.25162596935758985 0.07200340252176604 -0.25162596935758985
2.41E9 0.07065979541825881 -0.24928452328389297 0.929340204581741 0.24928452328389297 0.929340204581741 0.24928452328389297 0.07065979541825881 -0.24928452328389297
2.431E9 0.06934791493893684 -0.24696887771578613 0.930652085061063 0.24696887771578613 0.930652085061063 0.24696887771578613 0.06934791493893684 -0.24696887771578613
2.452E9 0.06806683265592622 -0.24467863375159285 0.9319331673440737 0.24467863375159285 0.9319331673440737 0.24467863375159285 0.06806683265592622 -0.24467863375159285
2.473E9 0.06681565277608283 -0.24241339620828686 0.9331843472239174 0.24241339620828686 0.9331843472239174 0.24241339620828686 0.06681565277608283 -0.24241339620828686
2.494E9 0.06559351083356807 -0.24017277384416832 0.9344064891664321 0.24017277384416832 0.9344064891664321 0.24017277384416832 0.06559351083356807 -0.24017277384416832
2.515E9 0.06439957243989358 -0.2379563795537315 0.9356004275601066 0.2379563795537315 0.9356004275601066 0.2379563795537315 0.06439957243989358 -0.2379563795537315
2.536E9 0.06323303208878495 -0.2357638305370945 0.9367669679112152 0.2357638305370945 0.9367669679112152 0.2357638305370945 0.06323303208878495 -0.2357638305370945
2.557E9 0.06209311201333347 -0.2335947484461729 0.9379068879866663 0.2335947484461729 0.9379068879866663 0.2335947484461729 0.06209311201333347 -0.2335947484461729
