!Murata Part Number: GRM0335C1E3R3CA01
!These Parameters are Measured in Series Mode Connection
!       o--ll--o
!Port1            Port2
!       o------o
!Operation Temp=25[degC], DC Bias Voltage=0[V]
!Freq. Start=100[MHz] Stop=8.5[GHz], 401[Steps]
!Data Generated on Jan 10, 2018
# Hz S RI R 50
!Freq.(Hz) S11(Real) S11(Imag) S21(Real) S21(Imag) S12(Real) S12(Imag) S22(Real) S22(Imag)
1.0E8 0.9586614823969513 -0.1988143944250512 0.04133851760304872 0.1988143944250512 0.04133851760304872 0.1988143944250512 0.9586614823969513 -0.1988143944250512
1.21E8 0.9406021585405432 -0.23605600058175677 0.059397841459456834 0.23605600058175677 0.059397841459456834 0.23605600058175677 0.9406021585405432 -0.23605600058175677
1.42E8 0.9199673459762435 -0.27097761475996074 0.08003265402375638 0.27097761475996074 0.08003265402375638 0.27097761475996074 0.9199673459762435 -0.27097761475996074
1.63E8 0.897129159044217 -0.30336954308958175 0.102870840955783 0.30336954308958175 0.102870840955783 0.30336954308958175 0.897129159044217 -0.30336954308958175
1.84E8 0.8724700760435746 -0.3330905239037393 0.12752992395642535 0.3330905239037393 0.12752992395642535 0.3330905239037393 0.8724700760435746 -0.3330905239037393
2.05E8 0.8463695574028887 -0.3600643126813438 0.1536304425971113 0.3600643126813438 0.1536304425971113 0.3600643126813438 0.8463695574028887 -0.3600643126813438
2.26E8 0.8191927257664231 -0.38427374938592546 0.1808072742335769 0.38427374938592546 0.1808072742335769 0.38427374938592546 0.8191927257664231 -0.38427374938592546
2.47E8 0.7912814611505335 -0.4057531136133602 0.2087185388494664 0.4057531136133602 0.2087185388494664 0.4057531136133602 0.7912814611505335 -0.4057531136133602
2.68E8 0.7629479986662949 -0.4245795484756842 0.23705200133370524 0.4245795484756842 0.23705200133370524 0.4245795484756842 0.7629479986662949 -0.4245795484756842
2.89E8 0.7344709032645438 -0.44086423743780734 0.2655290967354562 0.44086423743780734 0.2655290967354562 0.44086423743780734 0.7344709032645438 -0.44086423743780734
3.1E8 0.7060931473975396 -0.4547438797750402 0.2939068526024603 0.4547438797750402 0.2939068526024603 0.4547438797750402 0.7060931473975396 -0.4547438797750402
3.31E8 0.6780219327575141 -0.4663728574274134 0.3219780672424859 0.4663728574274134 0.3219780672424859 0.4663728574274134 0.6780219327575141 -0.4663728574274134
3.52E8 0.6504298672644223 -0.4759163398530271 0.34957013273557774 0.4759163398530271 0.34957013273557774 0.4759163398530271 0.6504298672644223 -0.4759163398530271
3.73E8 0.6234571199390918 -0.4835444475175874 0.3765428800609082 0.4835444475175874 0.3765428800609082 0.4835444475175874 0.6234571199390918 -0.4835444475175874
3.94E8 0.5972142151498013 -0.48942749542891256 0.4027857848501988 0.48942749542891256 0.4027857848501988 0.48942749542891256 0.5972142151498013 -0.48942749542891256
4.15E8 0.5717851814128271 -0.49373226675671755 0.42821481858717303 0.49373226675671755 0.42821481858717303 0.49373226675671755 0.5717851814128271 -0.49373226675671755
4.36E8 0.5472308285911756 -0.49661922062107655 0.45276917140882444 0.49661922062107655 0.45276917140882444 0.49661922062107655 0.5472308285911756 -0.49661922062107655
4.57E8 0.5235919840668866 -0.4982405132316654 0.47640801593311344 0.4982405132316654 0.47640801593311344 0.4982405132316654 0.5235919840668866 -0.4982405132316654
4.78E8 0.5008925690548557 -0.4987387027283055 0.49910743094514426 0.4987387027283055 0.49910743094514426 0.4987387027283055 0.5008925690548557 -0.4987387027283055
4.99E8 0.4791424386295472 -0.49824601054017637 0.5208575613704526 0.49824601054017637 0.5208575613704526 0.49824601054017637 0.4791424386295472 -0.49824601054017637
5.2E8 0.4583399427443031 -0.4968840217550182 0.5416600572556969 0.4968840217550182 0.5416600572556969 0.4968840217550182 0.4583399427443031 -0.4968840217550182
5.41E8 0.4384741910183882 -0.49476372064120183 0.5615258089816119 0.49476372064120183 0.5615258089816119 0.49476372064120183 0.4384741910183882 -0.49476372064120183
5.62E8 0.4195270223744064 -0.4919857727245433 0.5804729776255938 0.4919857727245433 0.5804729776255938 0.4919857727245433 0.4195270223744064 -0.4919857727245433
5.83E8 0.40147469297475036 -0.4886409800729845 0.5985253070252496 0.4886409800729845 0.5985253070252496 0.4886409800729845 0.40147469297475036 -0.4886409800729845
6.04E8 0.3842893035883273 -0.4848108506790739 0.6157106964116728 0.4848108506790739 0.6157106964116728 0.4848108506790739 0.3842893035883273 -0.4848108506790739
6.25E8 0.3679399916657173 -0.480568235503389 0.6320600083342827 0.480568235503389 0.6320600083342827 0.480568235503389 0.3679399916657173 -0.480568235503389
6.46E8 0.3523939149916266 -0.4759779976251381 0.6476060850083735 0.4759779976251381 0.6476060850083735 0.4759779976251381 0.3523939149916266 -0.4759779976251381
6.67E8 0.33761705361273026 -0.47109768702532845 0.6623829463872697 0.47109768702532845 0.6623829463872697 0.47109768702532845 0.33761705361273026 -0.47109768702532845
6.88E8 0.3235748554253464 -0.4659782019179676 0.6764251445746537 0.4659782019179676 0.6764251445746537 0.4659782019179676 0.3235748554253464 -0.4659782019179676
7.09E8 0.3102327488146386 -0.460664423429049 0.6897672511853614 0.460664423429049 0.6897672511853614 0.460664423429049 0.3102327488146386 -0.460664423429049
7.3E8 0.2975565434003877 -0.45519581501220147 0.7024434565996124 0.45519581501220147 0.7024434565996124 0.45519581501220147 0.2975565434003877 -0.45519581501220147
7.51E8 0.28551273749671263 -0.4496069814957255 0.7144872625032874 0.4496069814957255 0.7144872625032874 0.4496069814957255 0.28551273749671263 -0.4496069814957255
7.72E8 0.274068748488805 -0.44392818527608 0.7259312515111951 0.44392818527608 0.7259312515111951 0.44392818527608 0.274068748488805 -0.44392818527608
7.93E8 0.26319308006474945 -0.43818581908355486 0.7368069199352506 0.43818581908355486 0.7368069199352506 0.43818581908355486 0.26319308006474945 -0.43818581908355486
8.14E8 0.2528554381687757 -0.4324028360978338 0.7471445618312242 0.4324028360978338 0.7471445618312242 0.4324028360978338 0.2528554381687757 -0.4324028360978338
8.35E8 0.24302680568847856 -0.4265991391106388 0.7569731943115214 0.4265991391106388 0.7569731943115214 0.4265991391106388 0.24302680568847856 -0.4265991391106388
8.56E8 0.233679484257642 -0.4207919310228985 0.7663205157423579 0.4207919310228985 0.7663205157423579 0.4207919310228985 0.233679484257642 -0.4207919310228985
8.77E8 0.22478711014081132 -0.41499602930791313 0.7752128898591886 0.41499602930791313 0.7752128898591886 0.41499602930791313 0.22478711014081132 -0.41499602930791313
8.98E8 0.21632464995071385 -0.40922414723541617 0.783675350049286 0.40922414723541617 0.783675350049286 0.40922414723541617 0.21632464995071385 -0.40922414723541617
9.19E8 0.2082683809162325 -0.4034871446854665 0.7917316190837675 0.4034871446854665 0.7917316190837675 0.4034871446854665 0.2082683809162325 -0.4034871446854665
9.4E8 0.20059585954659973 -0.39779425132510693 0.7994041404534002 0.39779425132510693 0.7994041404534002 0.39779425132510693 0.20059585954659973 -0.39779425132510693
9.61E8 0.19328588180660045 -0.39215326480454693 0.8067141181933996 0.39215326480454693 0.8067141181933996 0.39215326480454693 0.19328588180660045 -0.39215326480454693
9.82E8 0.18631843730868358 -0.38657072647560686 0.8136815626913165 0.38657072647560686 0.8136815626913165 0.38657072647560686 0.18631843730868358 -0.38657072647560686
1.003E9 0.17967465952338377 -0.3810520769597278 0.8203253404766162 0.3810520769597278 0.8203253404766162 0.3810520769597278 0.17967465952338377 -0.3810520769597278
1.024E9 0.173336773593548 -0.3756017937078661 0.8266632264064517 0.3756017937078661 0.8266632264064517 0.3756017937078661 0.173336773593548 -0.3756017937078661
1.045E9 0.16728804299663513 -0.37022351250842384 0.8327119570033648 0.37022351250842384 0.8327119570033648 0.37022351250842384 0.16728804299663513 -0.37022351250842384
1.066E9 0.16151271602070041 -0.36492013471777507 0.8384872839792995 0.36492013471777507 0.8384872839792995 0.36492013471777507 0.16151271602070041 -0.36492013471777507
1.087E9 0.155995972793178 -0.35969392181465465 0.844004027206822 0.35969392181465465 0.844004027206822 0.35969392181465465 0.155995972793178 -0.35969392181465465
1.108E9 0.15072387341836702 -0.3545465787170306 0.8492761265816332 0.3545465787170306 0.8492761265816332 0.3545465787170306 0.15072387341836702 -0.3545465787170306
1.129E9 0.1456833076320739 -0.3494793271492924 0.8543166923679263 0.3494793271492924 0.8543166923679263 0.3494793271492924 0.1456833076320739 -0.3494793271492924
1.15E9 0.1408619462638746 -0.3444929702091849 0.8591380537361252 0.3444929702091849 0.8591380537361252 0.3444929702091849 0.1408619462638746 -0.3444929702091849
1.171E9 0.13624819470360505 -0.33958794915784796 0.8637518052963948 0.33958794915784796 0.8637518052963948 0.33958794915784796 0.13624819470360505 -0.33958794915784796
1.192E9 0.13183114849459396 -0.3347643933422191 0.8681688515054061 0.3347643933422191 0.8681688515054061 0.3347643933422191 0.13183114849459396 -0.3347643933422191
1.213E9 0.12760055111812627 -0.33002216405630475 0.8723994488818736 0.33002216405630475 0.8723994488818736 0.33002216405630475 0.12760055111812627 -0.33002216405630475
1.234E9 0.12354675398866256 -0.32536089305568816 0.8764532460113373 0.32536089305568816 0.8764532460113373 0.32536089305568816 0.12354675398866256 -0.32536089305568816
1.255E9 0.11966067864492684 -0.3207800163572965 0.8803393213550732 0.3207800163572965 0.8803393213550732 0.3207800163572965 0.11966067864492684 -0.3207800163572965
1.276E9 0.11593378109606876 -0.316278803883082 0.8840662189039313 0.316278803883082 0.8840662189039313 0.316278803883082 0.11593378109606876 -0.316278803883082
1.297E9 0.11235801826301631 -0.31185638544103894 0.8876419817369838 0.31185638544103894 0.8876419817369838 0.31185638544103894 0.11235801826301631 -0.31185638544103894
1.318E9 0.10892581644148641 -0.30751177347910286 0.8910741835585134 0.30751177347910286 0.8910741835585134 0.30751177347910286 0.10892581644148641 -0.30751177347910286
1.339E9 0.10563004170379173 -0.3032438829962099 0.8943699582962082 0.3032438829962099 0.8943699582962082 0.3032438829962099 0.10563004170379173 -0.3032438829962099
1.36E9 0.10246397215065219 -0.2990515489494349 0.8975360278493479 0.2990515489494349 0.8975360278493479 0.2990515489494349 0.10246397215065219 -0.2990515489494349
1.381E9 0.09942127192095722 -0.29493354145604395 0.9005787280790429 0.29493354145604395 0.9005787280790429 0.29493354145604395 0.09942127192095722 -0.29493354145604395
1.402E9 0.09649596686621946 -0.29088857905390403 0.9035040331337805 0.29088857905390403 0.9035040331337805 0.29088857905390403 0.09649596686621946 -0.29088857905390403
1.423E9 0.09368242179683473 -0.28691534025246224 0.9063175782031653 0.28691534025246224 0.9063175782031653 0.28691534025246224 0.09368242179683473 -0.28691534025246224
1.444E9 0.09097531920882702 -0.28301247357896436 0.9090246807911727 0.28301247357896436 0.9090246807911727 0.28301247357896436 0.09097531920882702 -0.28301247357896436
1.465E9 0.08836963940219815 -0.2791786063003092 0.9116303605978018 0.2791786063003092 0.9116303605978018 0.2791786063003092 0.08836963940219815 -0.2791786063003092
1.486E9 0.08586064190507098 -0.275412351979531 0.914139358094929 0.275412351979531 0.914139358094929 0.275412351979531 0.08586064190507098 -0.275412351979531
1.507E9 0.08344384812132039 -0.27171231700706067 0.9165561518786796 0.27171231700706067 0.9165561518786796 0.27171231700706067 0.08344384812132039 -0.27171231700706067
1.528E9 0.0811150251231667 -0.26807710623029746 0.9188849748768332 0.26807710623029746 0.9188849748768332 0.26807710623029746 0.0811150251231667 -0.26807710623029746
1.549E9 0.07887017051414603 -0.26450532779040187 0.9211298294858538 0.26450532779040187 0.9211298294858538 0.26450532779040187 0.07887017051414603 -0.26450532779040187
1.57E9 0.07670549829187358 -0.2609955972623229 0.9232945017081264 0.2609955972623229 0.9232945017081264 0.2609955972623229 0.07670549829187358 -0.2609955972623229
1.591E9 0.07461742564401135 -0.257546541182723 0.9253825743559889 0.257546541182723 0.9253825743559889 0.257546541182723 0.07461742564401135 -0.257546541182723
1.612E9 0.07260256061478287 -0.25415680004045654 0.9273974393852171 0.25415680004045654 0.9273974393852171 0.25415680004045654 0.07260256061478287 -0.25415680004045654
1.633E9 0.0706576905832062 -0.2508250307954396 0.9293423094167937 0.2508250307954396 0.9293423094167937 0.2508250307954396 0.0706576905832062 -0.2508250307954396
1.654E9 0.06877977149791611 -0.24754990898397888 0.9312202285020837 0.24754990898397888 0.9312202285020837 0.24754990898397888 0.06877977149791611 -0.24754990898397888
1.675E9 0.06696591781699314 -0.24433013046177787 0.9330340821830068 0.24433013046177787 0.9330340821830068 0.24433013046177787 0.06696591781699314 -0.24433013046177787
1.696E9 0.0652133931046007 -0.24116441282979623 0.9347866068953994 0.24116441282979623 0.9347866068953994 0.24116441282979623 0.0652133931046007 -0.24116441282979623
1.717E9 0.06351960123944325 -0.23805149658281147 0.936480398760557 0.23805149658281147 0.936480398760557 0.23805149658281147 0.06351960123944325 -0.23805149658281147
1.738E9 0.06188207819309876 -0.23499014601583532 0.938117921806901 0.23499014601583532 0.938117921806901 0.23499014601583532 0.06188207819309876 -0.23499014601583532
1.759E9 0.060298484339139966 -0.23197914991938665 0.93970151566086 0.23197914991938665 0.93970151566086 0.23197914991938665 0.060298484339139966 -0.23197914991938665
1.78E9 0.058766597256653355 -0.22901732209096612 0.9412334027433467 0.22901732209096612 0.9412334027433467 0.22901732209096612 0.058766597256653355 -0.22901732209096612
1.801E9 0.057284304994290464 -0.22610350168684828 0.9427156950057095 0.22610350168684828 0.9427156950057095 0.22610350168684828 0.057284304994290464 -0.22610350168684828
1.822E9 0.05584959976334813 -0.22323655343545085 0.9441504002366521 0.22323655343545085 0.9441504002366521 0.22323655343545085 0.05584959976334813 -0.22323655343545085
1.843E9 0.05446057203058569 -0.22041536773102524 0.9455394279694141 0.22041536773102524 0.9455394279694141 0.22041536773102524 0.05446057203058569 -0.22041536773102524
1.864E9 0.05311540498354785 -0.21763886062418603 0.9468845950164521 0.21763886062418603 0.9468845950164521 0.21763886062418603 0.05311540498354785 -0.21763886062418603
1.885E9 0.05181236934308266 -0.21490597372382886 0.9481876306569175 0.21490597372382886 0.9481876306569175 0.21490597372382886 0.05181236934308266 -0.21490597372382886
1.906E9 0.05054981849953485 -0.21221567402325234 0.9494501815004651 0.21221567402325234 0.9494501815004651 0.21221567402325234 0.05054981849953485 -0.21221567402325234
1.927E9 0.04932618395075776 -0.20956695366176104 0.9506738160492424 0.20956695366176104 0.9506738160492424 0.20956695366176104 0.04932618395075776 -0.20956695366176104
1.948E9 0.04813997102163477 -0.20695882963166937 0.9518600289783651 0.20695882963166937 0.9518600289783651 0.20695882963166937 0.04813997102163477 -0.20695882963166937
1.969E9 0.04698975484623905 -0.20439034343942739 0.953010245153761 0.20439034343942739 0.953010245153761 0.20439034343942739 0.04698975484623905 -0.20439034343942739
1.99E9 0.0458741765950944 -0.20186056072852634 0.9541258234049056 0.20186056072852634 0.9541258234049056 0.20186056072852634 0.0458741765950944 -0.20186056072852634
2.011E9 0.04479193993123932 -0.1993685708709048 0.9552080600687606 0.1993685708709048 0.9552080600687606 0.1993685708709048 0.04479193993123932 -0.1993685708709048
2.032E9 0.04374180767994638 -0.19691348653274565 0.9562581923200535 0.19691348653274565 0.9562581923200535 0.19691348653274565 0.04374180767994638 -0.19691348653274565
2.053E9 0.04272259869801453 -0.19449444321982054 0.9572774013019856 0.19449444321982054 0.9572774013019856 0.19449444321982054 0.04272259869801453 -0.19449444321982054
2.074E9 0.04173318492954196 -0.19211059880688974 0.9582668150704579 0.19211059880688974 0.9582668150704579 0.19211059880688974 0.04173318492954196 -0.19211059880688974
2.095E9 0.04077248863600392 -0.18976113305509165 0.959227511363996 0.18976113305509165 0.959227511363996 0.18976113305509165 0.04077248863600392 -0.18976113305509165
2.116E9 0.03983947978931025 -0.1874452471207477 0.9601605202106895 0.1874452471207477 0.9601605202106895 0.1874452471207477 0.03983947978931025 -0.1874452471207477
2.137E9 0.03893317361730708 -0.18516216305856378 0.9610668263826928 0.18516216305856378 0.9610668263826928 0.18516216305856378 0.03893317361730708 -0.18516216305856378
2.158E9 0.03805262829191678 -0.18291112332180706 0.9619473717080832 0.18291112332180706 0.9619473717080832 0.18291112332180706 0.03805262829191678 -0.18291112332180706
2.179E9 0.03719694275079038 -0.18069139026169437 0.9628030572492096 0.18069139026169437 0.9628030572492096 0.18069139026169437 0.03719694275079038 -0.18069139026169437
2.2E9 0.03636525464397405 -0.178502245627913 0.9636347453560258 0.178502245627913 0.9636347453560258 0.178502245627913 0.03636525464397405 -0.178502245627913
2.221E9 0.03555673839767518 -0.17634299007192555 0.9644432616023249 0.17634299007192555 0.9644432616023249 0.17634299007192555 0.03555673839767518 -0.17634299007192555
2.242E9 0.03477060338775484 -0.17421294265446863 0.9652293966122452 0.17421294265446863 0.9652293966122452 0.17421294265446863 0.03477060338775484 -0.17421294265446863
2.263E9 0.03400609221607488 -0.17211144035844358 0.9659939077839254 0.17211144035844358 0.9659939077839254 0.17211144035844358 0.03400609221607488 -0.17211144035844358
2.284E9 0.033262479083294334 -0.1700378376082094 0.9667375209167056 0.1700378376082094 0.9667375209167056 0.1700378376082094 0.033262479083294334 -0.1700378376082094
2.305E9 0.0325390682521415 -0.16799150579612435 0.9674609317478585 0.16799150579612435 0.9674609317478585 0.16799150579612435 0.0325390682521415 -0.16799150579612435
2.326E9 0.03183519259558986 -0.165971832817038 0.9681648074044101 0.165971832817038 0.9681648074044101 0.165971832817038 0.03183519259558986 -0.165971832817038
2.347E9 0.03115021222473847 -0.16397822261130784 0.9688497877752618 0.16397822261130784 0.9688497877752618 0.16397822261130784 0.03115021222473847 -0.16397822261130784
2.368E9 0.03048351319154329 -0.1620100947168025 0.9695164868084567 0.1620100947168025 0.9695164868084567 0.1620100947168025 0.03048351319154329 -0.1620100947168025
2.389E9 0.029834506261868062 -0.16006688383025827 0.970165493738132 0.16006688383025827 0.970165493738132 0.16006688383025827 0.029834506261868062 -0.16006688383025827
2.41E9 0.02920262575462127 -0.15814803937826621 0.9707973742453787 0.15814803937826621 0.9707973742453787 0.15814803937826621 0.02920262575462127 -0.15814803937826621
2.431E9 0.028587328443023984 -0.1562530250980962 0.9714126715569759 0.1562530250980962 0.9714126715569759 0.1562530250980962 0.028587328443023984 -0.1562530250980962
2.452E9 0.027988092514311617 -0.1543813186284969 0.9720119074856884 0.1543813186284969 0.9720119074856884 0.1543813186284969 0.027988092514311617 -0.1543813186284969
2.473E9 0.027404416584412013 -0.15253241111055485 0.9725955834155879 0.15253241111055485 0.9725955834155879 0.15253241111055485 0.027404416584412013 -0.15253241111055485
2.494E9 0.02683581876436678 -0.1507058067986469 0.9731641812356333 0.1507058067986469 0.9731641812356333 0.1507058067986469 0.02683581876436678 -0.1507058067986469
2.515E9 0.026281835775469567 -0.14890102268147754 0.9737181642245306 0.14890102268147754 0.9737181642245306 0.14890102268147754 0.026281835775469567 -0.14890102268147754
2.536E9 0.025742022110289364 -0.1471175881131569 0.9742579778897108 0.1471175881131569 0.9742579778897108 0.1471175881131569 0.025742022110289364 -0.1471175881131569
2.557E9 0.025215949236926535 -0.14535504445424313 0.9747840507630733 0.14535504445424313 0.9747840507630733 0.14535504445424313 0.025215949236926535 -0.14535504445424313
