!Murata Part Number: GRM0335C1E4R0CA01
!These Parameters are Measured in Series Mode Connection
!       o--ll--o
!Port1            Port2
!       o------o
!Operation Temp=25[degC], DC Bias Voltage=0[V]
!Freq. Start=100[MHz] Stop=8.5[GHz], 401[Steps]
!Data Generated on Jan 10, 2018
# Hz S RI R 50
!Freq.(Hz) S11(Real) S11(Imag) S21(Real) S21(Imag) S12(Real) S12(Imag) S22(Real) S22(Imag)
1.0E8 0.9404206876956763 -0.23640726944355978 0.05957931230432349 0.23640726944355978 0.05957931230432349 0.23640726944355978 0.9404206876956763 -0.23640726944355978
1.21E8 0.9150951481669533 -0.2783787664091782 0.08490485183304669 0.2783787664091782 0.08490485183304669 0.2783787664091782 0.9150951481669533 -0.2783787664091782
1.42E8 0.8866619538750927 -0.31658142057481614 0.11333804612490737 0.31658142057481614 0.11333804612490737 0.31658142057481614 0.8866619538750927 -0.31658142057481614
1.63E8 0.8558023096175627 -0.35080297668651256 0.14419769038243746 0.35080297668651256 0.14419769038243746 0.35080297668651256 0.8558023096175627 -0.35080297668651256
1.84E8 0.8231797882388773 -0.3809663444158914 0.1768202117611227 0.3809663444158914 0.1768202117611227 0.3809663444158914 0.8231797882388773 -0.3809663444158914
2.05E8 0.7894140869997301 -0.40711149027970356 0.21058591300026983 0.40711149027970356 0.21058591300026983 0.40711149027970356 0.7894140869997301 -0.40711149027970356
2.26E8 0.7550626607585562 -0.42937350691797327 0.24493733924144365 0.42937350691797327 0.24493733924144365 0.42937350691797327 0.7550626607585562 -0.42937350691797327
2.47E8 0.7206099525866069 -0.44795958643428807 0.27939004741339313 0.44795958643428807 0.27939004741339313 0.44795958643428807 0.7206099525866069 -0.44795958643428807
2.68E8 0.6864632059228603 -0.46312701268994505 0.3135367940771398 0.46312701268994505 0.3135367940771398 0.46312701268994505 0.6864632059228603 -0.46312701268994505
2.89E8 0.6529534614487016 -0.4751635843909475 0.34704653855129847 0.4751635843909475 0.34704653855129847 0.4751635843909475 0.6529534614487016 -0.4751635843909475
3.1E8 0.6203402558873355 -0.48437122643390473 0.37965974411266445 0.48437122643390473 0.37965974411266445 0.48437122643390473 0.6203402558873355 -0.48437122643390473
3.31E8 0.5888186575290023 -0.4910530206468014 0.41118134247099775 0.4910530206468014 0.41118134247099775 0.4910530206468014 0.5888186575290023 -0.4910530206468014
3.52E8 0.5585275034555272 -0.4955035156169487 0.4414724965444729 0.4955035156169487 0.4414724965444729 0.4955035156169487 0.5585275034555272 -0.4955035156169487
3.73E8 0.5295579731557927 -0.49800194972785833 0.47044202684420733 0.49800194972785833 0.47044202684420733 0.49800194972785833 0.5295579731557927 -0.49800194972785833
3.94E8 0.501961893219249 -0.4988079140157335 0.4980381067807511 0.4988079140157335 0.4980381067807511 0.4988079140157335 0.501961893219249 -0.4988079140157335
4.15E8 0.4757593907736067 -0.4981589585278482 0.5242406092263934 0.4981589585278482 0.5242406092263934 0.4981589585278482 0.4757593907736067 -0.4981589585278482
4.36E8 0.4509456886995221 -0.49626967648495646 0.5490543113004778 0.49626967648495646 0.5490543113004778 0.49626967648495646 0.4509456886995221 -0.49626967648495646
4.57E8 0.42749696362304385 -0.4933318599248589 0.5725030363769562 0.4933318599248589 0.5725030363769562 0.4933318599248589 0.42749696362304385 -0.4933318599248589
4.78E8 0.4053752743040424 -0.48951539094846613 0.5946247256959578 0.48951539094846613 0.5946247256959578 0.48951539094846613 0.4053752743040424 -0.48951539094846613
4.99E8 0.3845326216412777 -0.48496960287399044 0.6154673783587223 0.48496960287399044 0.6154673783587223 0.48496960287399044 0.3845326216412777 -0.48496960287399044
5.2E8 0.36491423053961486 -0.47982490915457504 0.6350857694603851 0.47982490915457504 0.6350857694603851 0.47982490915457504 0.36491423053961486 -0.47982490915457504
5.41E8 0.34646115573818875 -0.4741945519383356 0.6535388442618113 0.4741945519383356 0.6535388442618113 0.4741945519383356 0.34646115573818875 -0.4741945519383356
5.62E8 0.32911231432437393 -0.4681763659831053 0.6708876856756258 0.4681763659831053 0.6708876856756258 0.4681763659831053 0.32911231432437393 -0.4681763659831053
5.83E8 0.31280604152120467 -0.4618544878940484 0.6871939584787954 0.4618544878940484 0.6871939584787954 0.4618544878940484 0.31280604152120467 -0.4618544878940484
6.04E8 0.29748125660356156 -0.4553009665659933 0.7025187433964383 0.4553009665659933 0.7025187433964383 0.4553009665659933 0.29748125660356156 -0.4553009665659933
6.25E8 0.2830783146005351 -0.44857724972615554 0.7169216853994649 0.44857724972615554 0.7169216853994649 0.44857724972615554 0.2830783146005351 -0.44857724972615554
6.46E8 0.2695396081257748 -0.4417355349966164 0.7304603918742252 0.4417355349966164 0.7304603918742252 0.4417355349966164 0.2695396081257748 -0.4417355349966164
6.67E8 0.256809973033444 -0.43481998318559806 0.7431900269665559 0.43481998318559806 0.7431900269665559 0.43481998318559806 0.256809973033444 -0.43481998318559806
6.88E8 0.24483694203241488 -0.42786779762786975 0.755163057967585 0.42786779762786975 0.755163057967585 0.42786779762786975 0.24483694203241488 -0.42786779762786975
7.09E8 0.2335708820654411 -0.42091017717890483 0.7664291179345588 0.42091017717890483 0.7664291179345588 0.42091017717890483 0.2335708820654411 -0.42091017717890483
7.3E8 0.22296504418073262 -0.41397315258999046 0.7770349558192674 0.41397315258999046 0.7770349558192674 0.41397315258999046 0.22296504418073262 -0.41397315258999046
7.51E8 0.21297554871150584 -0.4070783169591014 0.7870244512884941 0.4070783169591014 0.7870244512884941 0.4070783169591014 0.21297554871150584 -0.4070783169591014
7.72E8 0.20356132371236457 -0.40024346114244075 0.7964386762876354 0.40024346114244075 0.7964386762876354 0.40024346114244075 0.20356132371236457 -0.40024346114244075
7.93E8 0.19468401064172378 -0.39348312469955693 0.8053159893582761 0.39348312469955693 0.8053159893582761 0.39348312469955693 0.19468401064172378 -0.39348312469955693
8.14E8 0.18630784808950615 -0.38680907232779355 0.8136921519104938 0.38680907232779355 0.8136921519104938 0.38680907232779355 0.18630784808950615 -0.38680907232779355
8.35E8 0.17839954180137632 -0.38023070495732775 0.8216004581986235 0.38023070495732775 0.8216004581986235 0.38023070495732775 0.17839954180137632 -0.38023070495732775
8.56E8 0.17092812723119274 -0.3737554138202655 0.8290718727688073 0.3737554138202655 0.8290718727688073 0.3737554138202655 0.17092812723119274 -0.3737554138202655
8.77E8 0.16386482926398363 -0.3673888849384317 0.8361351707360162 0.3673888849384317 0.8361351707360162 0.3673888849384317 0.16386482926398363 -0.3673888849384317
8.98E8 0.15718292250955648 -0.3611353606341448 0.8428170774904434 0.3611353606341448 0.8428170774904434 0.3611353606341448 0.15718292250955648 -0.3611353606341448
9.19E8 0.15085759460270762 -0.3549978638798999 0.8491424053972926 0.3549978638798999 0.8491424053972926 0.3549978638798999 0.15085759460270762 -0.3549978638798999
9.4E8 0.1448658142031289 -0.3489783905790473 0.8551341857968713 0.3489783905790473 0.8551341857968713 0.3489783905790473 0.1448658142031289 -0.3489783905790473
9.61E8 0.13918620482026126 -0.34307807421532716 0.860813795179739 0.34307807421532716 0.860813795179739 0.34307807421532716 0.13918620482026126 -0.34307807421532716
9.82E8 0.13379892515821928 -0.3372973267248082 0.8662010748417808 0.3372973267248082 0.8662010748417808 0.3372973267248082 0.13379892515821928 -0.3372973267248082
1.003E9 0.12868555635359172 -0.33163595892665526 0.8713144436464082 0.33163595892665526 0.8713144436464082 0.33163595892665526 0.12868555635359172 -0.33163595892665526
1.024E9 0.123828996240539 -0.32609328339472526 0.876171003759461 0.32609328339472526 0.876171003759461 0.32609328339472526 0.123828996240539 -0.32609328339472526
1.045E9 0.11921336060426121 -0.3206682022549182 0.8807866393957388 0.3206682022549182 0.8807866393957388 0.3206682022549182 0.11921336060426121 -0.3206682022549182
1.066E9 0.11482389126063307 -0.3153592820477621 0.8851761087393668 0.3153592820477621 0.8851761087393668 0.3153592820477621 0.11482389126063307 -0.3153592820477621
1.087E9 0.11064687071485987 -0.31016481749625696 0.8893531292851403 0.31016481749625696 0.8893531292851403 0.31016481749625696 0.11064687071485987 -0.31016481749625696
1.108E9 0.1066695430961789 -0.3050828857601309 0.893330456903821 0.3050828857601309 0.893330456903821 0.3050828857601309 0.1066695430961789 -0.3050828857601309
1.129E9 0.10288004103173438 -0.30011139253436975 0.8971199589682655 0.30011139253436975 0.8971199589682655 0.30011139253436975 0.10288004103173438 -0.30011139253436975
1.15E9 0.09926731810519888 -0.2952481111576076 0.9007326818948012 0.2952481111576076 0.9007326818948012 0.2952481111576076 0.09926731810519888 -0.2952481111576076
1.171E9 0.09582108654018098 -0.2904907157306349 0.904178913459819 0.2904907157306349 0.904178913459819 0.2904907157306349 0.09582108654018098 -0.2904907157306349
1.192E9 0.0925317597516068 -0.2858368091032471 0.907468240248393 0.2858368091032471 0.907468240248393 0.2858368091032471 0.0925317597516068 -0.2858368091032471
1.213E9 0.08939039941754459 -0.2812839464657373 0.9106096005824555 0.2812839464657373 0.9106096005824555 0.2812839464657373 0.08939039941754459 -0.2812839464657373
1.234E9 0.08638866673740501 -0.2768296551767379 0.913611333262595 0.2768296551767379 0.913611333262595 0.2768296551767379 0.08638866673740501 -0.2768296551767379
1.255E9 0.08351877755862455 -0.2724714513694091 0.9164812224413755 0.2724714513694091 0.9164812224413755 0.2724714513694091 0.08351877755862455 -0.2724714513694091
1.276E9 0.08077346107171786 -0.26820685380104164 0.9192265389282822 0.26820685380104164 0.9192265389282822 0.26820685380104164 0.08077346107171786 -0.26820685380104164
1.297E9 0.07814592179215205 -0.26403339534519177 0.9218540782078478 0.26403339534519177 0.9218540782078478 0.26403339534519177 0.07814592179215205 -0.26403339534519177
1.318E9 0.07562980456624735 -0.25994863246890426 0.9243701954337525 0.25994863246890426 0.9243701954337525 0.25994863246890426 0.07562980456624735 -0.25994863246890426
1.339E9 0.07321916235681629 -0.25595015298908624 0.9267808376431836 0.25595015298908624 0.9267808376431836 0.25595015298908624 0.07321916235681629 -0.25595015298908624
1.36E9 0.07090842658221494 -0.25203558236049 0.9290915734177848 0.25203558236049 0.9290915734177848 0.25203558236049 0.07090842658221494 -0.25203558236049
1.381E9 0.06869237979969359 -0.24820258871207693 0.9313076202003064 0.24820258871207693 0.9313076202003064 0.24820258871207693 0.06869237979969359 -0.24820258871207693
1.402E9 0.06656613054026629 -0.24444888681790533 0.9334338694597338 0.24444888681790533 0.9334338694597338 0.24444888681790533 0.06656613054026629 -0.24444888681790533
1.423E9 0.06452509011770197 -0.24077224116239354 0.9354749098822979 0.24077224116239354 0.9354749098822979 0.24077224116239354 0.06452509011770197 -0.24077224116239354
1.444E9 0.06256495124863225 -0.23717046823722934 0.9374350487513677 0.23717046823722934 0.9374350487513677 0.23717046823722934 0.06256495124863225 -0.23717046823722934
1.465E9 0.06068166833417866 -0.23364143818780164 0.9393183316658213 0.23364143818780164 0.9393183316658213 0.23364143818780164 0.06068166833417866 -0.23364143818780164
1.486E9 0.0588714392659351 -0.23018307591036424 0.941128560734065 0.23018307591036424 0.941128560734065 0.23018307591036424 0.0588714392659351 -0.23018307591036424
1.507E9 0.05713068863063437 -0.22679336168681 0.9428693113693657 0.22679336168681 0.9428693113693657 0.22679336168681 0.05713068863063437 -0.22679336168681
1.528E9 0.05545605219842585 -0.2234703314316133 0.944543947801574 0.2234703314316133 0.944543947801574 0.2234703314316133 0.05545605219842585 -0.2234703314316133
1.549E9 0.053844362589439 -0.22021207661490078 0.9461556374105607 0.22021207661490078 0.9461556374105607 0.22021207661490078 0.053844362589439 -0.22021207661490078
1.57E9 0.05229263602225725 -0.21701674391648718 0.9477073639777428 0.21701674391648718 0.9477073639777428 0.21701674391648718 0.05229263602225725 -0.21701674391648718
1.591E9 0.05079806005613389 -0.21388253465786342 0.949201939943866 0.21388253465786342 0.949201939943866 0.21388253465786342 0.05079806005613389 -0.21388253465786342
1.612E9 0.049357982246295756 -0.2108077040523685 0.9506420177537042 0.2108077040523685 0.9506420177537042 0.2108077040523685 0.049357982246295756 -0.2108077040523685
1.633E9 0.047969899638554754 -0.20779056030795132 0.9520301003614453 0.20779056030795132 0.9520301003614453 0.20779056030795132 0.047969899638554754 -0.20779056030795132
1.654E9 0.046631449035731125 -0.20482946361192214 0.9533685509642688 0.20482946361192214 0.9533685509642688 0.20482946361192214 0.046631449035731125 -0.20482946361192214
1.675E9 0.04534039797413304 -0.20192282502277226 0.9546596020258667 0.20192282502277226 0.9546596020258667 0.20192282502277226 0.04534039797413304 -0.20192282502277226
1.696E9 0.044094636353578597 -0.1990691052904241 0.9559053636464213 0.1990691052904241 0.9559053636464213 0.1990691052904241 0.044094636353578597 -0.1990691052904241
1.717E9 0.04289216866923116 -0.19626681362306989 0.9571078313307689 0.19626681362306989 0.9571078313307689 0.19626681362306989 0.04289216866923116 -0.19626681362306989
1.738E9 0.04173110679788518 -0.1935145064159989 0.9582688932021148 0.1935145064159989 0.9582688932021148 0.1935145064159989 0.04173110679788518 -0.1935145064159989
1.759E9 0.04060966329532418 -0.1908107859554387 0.9593903367046761 0.1908107859554387 0.9593903367046761 0.1908107859554387 0.04060966329532418 -0.1908107859554387
1.78E9 0.03952614516500784 -0.18815429910838835 0.9604738548349921 0.18815429910838835 0.9604738548349921 0.18815429910838835 0.03952614516500784 -0.18815429910838835
1.801E9 0.038478948061662174 -0.18554373600766616 0.961521051938338 0.18554373600766616 0.961521051938338 0.18554373600766616 0.038478948061662174 -0.18554373600766616
1.822E9 0.037466550896373664 -0.18297782873987534 0.9625334491036261 0.18297782873987534 0.9625334491036261 0.18297782873987534 0.037466550896373664 -0.18297782873987534
1.843E9 0.03648751081255142 -0.1804553500426961 0.9635124891874488 0.1804553500426961 0.9635124891874488 0.1804553500426961 0.03648751081255142 -0.1804553500426961
1.864E9 0.03554045850464201 -0.17797511201678917 0.9644595414953581 0.17797511201678917 0.9644595414953581 0.17797511201678917 0.03554045850464201 -0.17797511201678917
1.885E9 0.03462409385378565 -0.17553596485664166 0.9653759061462144 0.17553596485664166 0.9653759061462144 0.17553596485664166 0.03462409385378565 -0.17553596485664166
1.906E9 0.03373718185670385 -0.17313679560386008 0.9662628181432963 0.17313679560386008 0.9662628181432963 0.17313679560386008 0.03373718185670385 -0.17313679560386008
1.927E9 0.03287854882603099 -0.17077652692571443 0.967121451173969 0.17077652692571443 0.967121451173969 0.17077652692571443 0.03287854882603099 -0.17077652692571443
1.948E9 0.032047078842057194 -0.1684541159211341 0.9679529211579427 0.1684541159211341 0.9679529211579427 0.1684541159211341 0.032047078842057194 -0.1684541159211341
1.969E9 0.031241710437455356 -0.16616855295584299 0.9687582895625444 0.16616855295584299 0.9687582895625444 0.16616855295584299 0.031241710437455356 -0.16616855295584299
1.99E9 0.030461433498032996 -0.16391886052788496 0.9695385665019671 0.16391886052788496 0.9695385665019671 0.16391886052788496 0.030461433498032996 -0.16391886052788496
2.011E9 0.029705286363892747 -0.16170409216441883 0.9702947136361072 0.16170409216441883 0.9702947136361072 0.16170409216441883 0.029705286363892747 -0.16170409216441883
2.032E9 0.028972353116614565 -0.15952333135034844 0.9710276468833855 0.15952333135034844 0.9710276468833855 0.15952333135034844 0.028972353116614565 -0.15952333135034844
2.053E9 0.028261761039198672 -0.1573756904890873 0.9717382389608016 0.1573756904890873 0.9717382389608016 0.1573756904890873 0.028261761039198672 -0.1573756904890873
2.074E9 0.027572678236538757 -0.15526030989553488 0.972427321763461 0.15526030989553488 0.972427321763461 0.15526030989553488 0.027572678236538757 -0.15526030989553488
2.095E9 0.026904311405141747 -0.15317635682115668 0.9730956885948582 0.15317635682115668 0.9730956885948582 0.15317635682115668 0.026904311405141747 -0.15317635682115668
2.116E9 0.026255903741674812 -0.15112302451090082 0.9737440962583253 0.15112302451090082 0.9737440962583253 0.15112302451090082 0.026255903741674812 -0.15112302451090082
2.137E9 0.025626732980718023 -0.14909953129156267 0.9743732670192821 0.14909953129156267 0.9743732670192821 0.14909953129156267 0.025626732980718023 -0.14909953129156267
2.158E9 0.025016109552828864 -0.14710511969109916 0.9749838904471713 0.14710511969109916 0.9749838904471713 0.14710511969109916 0.025016109552828864 -0.14710511969109916
2.179E9 0.024423374854695604 -0.14513905558831108 0.9755766251453044 0.14513905558831108 0.9755766251453044 0.14513905558831108 0.024423374854695604 -0.14513905558831108
2.2E9 0.023847899623772807 -0.14320062739224695 0.9761521003762273 0.14320062739224695 0.9761521003762273 0.14320062739224695 0.023847899623772807 -0.14320062739224695
2.221E9 0.023289082410357206 -0.14128914525062522 0.9767109175896428 0.14128914525062522 0.9767109175896428 0.14128914525062522 0.023289082410357206 -0.14128914525062522
2.242E9 0.022746348140583347 -0.1394039402865352 0.9772536518594168 0.1394039402865352 0.9772536518594168 0.1394039402865352 0.022746348140583347 -0.1394039402865352
2.263E9 0.022219146764296926 -0.13754436386264413 0.9777808532357033 0.13754436386264413 0.9777808532357033 0.13754436386264413 0.022219146764296926 -0.13754436386264413
2.284E9 0.021706951982204944 -0.13570978687212132 0.978293048017795 0.13570978687212132 0.978293048017795 0.13570978687212132 0.021706951982204944 -0.13570978687212132
2.305E9 0.02120926004710726 -0.13389959905547313 0.9787907399528927 0.13389959905547313 0.9787907399528927 0.13389959905547313 0.02120926004710726 -0.13389959905547313
2.326E9 0.020725588634388968 -0.13211320834248094 0.9792744113656109 0.13211320834248094 0.9792744113656109 0.13211320834248094 0.020725588634388968 -0.13211320834248094
2.347E9 0.020255475777297378 -0.13035004021842933 0.9797445242227025 0.13035004021842933 0.9797445242227025 0.13035004021842933 0.020255475777297378 -0.13035004021842933
2.368E9 0.019798478862846098 -0.12860953711381956 0.9802015211371539 0.12860953711381956 0.9802015211371539 0.12860953711381956 0.019798478862846098 -0.12860953711381956
2.389E9 0.019354173684481796 -0.1268911578167671 0.9806458263155183 0.1268911578167671 0.9806458263155183 0.1268911578167671 0.019354173684481796 -0.1268911578167671
2.41E9 0.01892215354792093 -0.1251943769072963 0.9810778464520791 0.1251943769072963 0.9810778464520791 0.1251943769072963 0.01892215354792093 -0.1251943769072963
2.431E9 0.018502028426813883 -0.123518684212756 0.981497971573186 0.123518684212756 0.981497971573186 0.123518684212756 0.018502028426813883 -0.123518684212756
2.452E9 0.018093424165125445 -0.12186358428359706 0.9819065758348746 0.12186358428359706 0.9819065758348746 0.12186358428359706 0.018093424165125445 -0.12186358428359706
2.473E9 0.017695981723334885 -0.12022859588876836 0.9823040182766652 0.12022859588876836 0.9823040182766652 0.12022859588876836 0.017695981723334885 -0.12022859588876836
2.494E9 0.017309356465756688 -0.11861325153000765 0.9826906435342431 0.11861325153000765 0.9826906435342431 0.11861325153000765 0.017309356465756688 -0.11861325153000765
2.515E9 0.01693321748646657 -0.11701709697432174 0.9830667825135334 0.11701709697432174 0.9830667825135334 0.11701709697432174 0.01693321748646657 -0.11701709697432174
2.536E9 0.01656724697148678 -0.1154396908039701 0.9834327530285133 0.1154396908039701 0.9834327530285133 0.1154396908039701 0.01656724697148678 -0.1154396908039701
