!Murata Part Number: GRM0335C1E5R0CA01
!These Parameters are Measured in Series Mode Connection
!       o--ll--o
!Port1            Port2
!       o------o
!Operation Temp=25[degC], DC Bias Voltage=0[V]
!Freq. Start=100[MHz] Stop=8.5[GHz], 401[Steps]
!Data Generated on Jan 10, 2017
# Hz S RI R 50
!Freq.(Hz) S11(Real) S11(Imag) S21(Real) S21(Imag) S12(Real) S12(Imag) S22(Real) S22(Imag)
1.0E8 0.9099369423004237 -0.28594198664109327 0.09006305769957626 0.28594198664109327 0.09006305769957626 0.28594198664109327 0.9099369423004237 -0.28594198664109327
1.21E8 0.8733907826405289 -0.332135074281092 0.1266092173594711 0.332135074281092 0.1266092173594711 0.332135074281092 0.8733907826405289 -0.332135074281092
1.42E8 0.8335213332085015 -0.3720404861467398 0.16647866679149853 0.3720404861467398 0.16647866679149853 0.3720404861467398 0.8335213332085015 -0.3720404861467398
1.63E8 0.7915786268907529 -0.4056405766468264 0.20842137310924702 0.4056405766468264 0.20842137310924702 0.4056405766468264 0.7915786268907529 -0.4056405766468264
1.84E8 0.7486738448975194 -0.4331666241626451 0.2513261551024805 0.4331666241626451 0.2513261551024805 0.4331666241626451 0.7486738448975194 -0.4331666241626451
2.05E8 0.7057421129961098 -0.45502926057703724 0.2942578870038903 0.45502926057703724 0.2942578870038903 0.45502926057703724 0.7057421129961098 -0.45502926057703724
2.26E8 0.6635305163593198 -0.4717520704903911 0.33646948364068013 0.4717520704903911 0.33646948364068013 0.4717520704903911 0.6635305163593198 -0.4717520704903911
2.47E8 0.6226047986861573 -0.4839149178280033 0.37739520131384274 0.4839149178280033 0.37739520131384274 0.4839149178280033 0.6226047986861573 -0.4839149178280033
2.68E8 0.5833678805352446 -0.4921098406295966 0.4166321194647554 0.4921098406295966 0.4166321194647554 0.4921098406295966 0.5833678805352446 -0.4921098406295966
2.89E8 0.5460843079431167 -0.49690962531563004 0.4539156920568832 0.49690962531563004 0.4539156920568832 0.49690962531563004 0.5460843079431167 -0.49690962531563004
3.1E8 0.5109062613604716 -0.4988475474197898 0.4890937386395284 0.4988475474197898 0.4890937386395284 0.4988475474197898 0.5109062613604716 -0.4988475474197898
3.31E8 0.4778982879212707 -0.49840605542445315 0.5221017120787292 0.49840605542445315 0.5221017120787292 0.49840605542445315 0.4778982879212707 -0.49840605542445315
3.52E8 0.447059191144037 -0.4960120828801239 0.552940808855963 0.4960120828801239 0.552940808855963 0.4960120828801239 0.447059191144037 -0.4960120828801239
3.73E8 0.41834043434262935 -0.4920369274472223 0.5816595656573706 0.4920369274472223 0.5816595656573706 0.4920369274472223 0.41834043434262935 -0.4920369274472223
3.94E8 0.391661009654713 -0.4867990319181793 0.6083389903452868 0.4867990319181793 0.6083389903452868 0.4867990319181793 0.391661009654713 -0.4867990319181793
4.15E8 0.3669190625429639 -0.4805684163525105 0.6330809374570361 0.4805684163525105 0.6330809374570361 0.4805684163525105 0.3669190625429639 -0.4805684163525105
4.36E8 0.3440007186395414 -0.4735718774940927 0.6559992813604585 0.4735718774940927 0.6559992813604585 0.4735718774940927 0.3440007186395414 -0.4735718774940927
4.57E8 0.32278660191644676 -0.46599836713618026 0.6772133980835532 0.46599836713618026 0.6772133980835532 0.46599836713618026 0.32278660191644676 -0.46599836713618026
4.78E8 0.3031565098010394 -0.4580041834794718 0.6968434901989605 0.4580041834794718 0.6968434901989605 0.4580041834794718 0.3031565098010394 -0.4580041834794718
4.99E8 0.28499265553882314 -0.44971776811987796 0.715007344461177 0.44971776811987796 0.715007344461177 0.44971776811987796 0.28499265553882314 -0.44971776811987796
5.2E8 0.2681818216926724 -0.4412440090629959 0.7318181783073276 0.4412440090629959 0.7318181783073276 0.4412440090629959 0.2681818216926724 -0.4412440090629959
5.41E8 0.25261670298924754 -0.4326680198428945 0.7473832970107523 0.4326680198428945 0.7473832970107523 0.4326680198428945 0.25261670298924754 -0.4326680198428945
5.62E8 0.23819665768230988 -0.4240584073001622 0.7618033423176903 0.4240584073001622 0.7618033423176903 0.4240584073001622 0.23819665768230988 -0.4240584073001622
5.83E8 0.2248280364871132 -0.4154700643943168 0.7751719635128869 0.4154700643943168 0.7751719635128869 0.4154700643943168 0.2248280364871132 -0.4154700643943168
6.04E8 0.21242421720387442 -0.4069465359412448 0.7875757827961256 0.4069465359412448 0.7875757827961256 0.4069465359412448 0.21242421720387442 -0.4069465359412448
6.25E8 0.2009054406199226 -0.3985220089057098 0.7990945593800776 0.3985220089057098 0.7990945593800776 0.3985220089057098 0.2009054406199226 -0.3985220089057098
6.46E8 0.190198517966569 -0.3902229779594459 0.8098014820334312 0.3902229779594459 0.8098014820334312 0.3902229779594459 0.190198517966569 -0.3902229779594459
6.67E8 0.18023646083091063 -0.38206963351491163 0.8197635391690896 0.38206963351491163 0.8197635391690896 0.38206963351491163 0.18023646083091063 -0.38206963351491163
6.88E8 0.17095806979402825 -0.3740770147035828 0.8290419302059719 0.3740770147035828 0.8290419302059719 0.3740770147035828 0.17095806979402825 -0.3740770147035828
7.09E8 0.16230750715385522 -0.36625596461760873 0.8376924928461448 0.36625596461760873 0.8376924928461448 0.36625596461760873 0.16230750715385522 -0.36625596461760873
7.3E8 0.15423387103921657 -0.3586139200658183 0.8457661289607836 0.3586139200658183 0.8457661289607836 0.3586139200658183 0.15423387103921657 -0.3586139200658183
7.51E8 0.14669078234521274 -0.3511555633780254 0.8533092176547873 0.3511555633780254 0.8533092176547873 0.3511555633780254 0.14669078234521274 -0.3511555633780254
7.72E8 0.1396359916801565 -0.3438833595527834 0.8603640083198434 0.3438833595527834 0.8603640083198434 0.3438833595527834 0.1396359916801565 -0.3438833595527834
7.93E8 0.13303101049389304 -0.33679799832430696 0.8669689895061069 0.33679799832430696 0.8669689895061069 0.33679799832430696 0.13303101049389304 -0.33679799832430696
8.14E8 0.12684076843829592 -0.329898757515011 0.8731592315617043 0.329898757515011 0.8731592315617043 0.329898757515011 0.12684076843829592 -0.329898757515011
8.35E8 0.12103329755245325 -0.3231838013046718 0.8789667024475466 0.3231838013046718 0.8789667024475466 0.3231838013046718 0.12103329755245325 -0.3231838013046718
8.56E8 0.11557944288718153 -0.31665042473660826 0.8844205571128184 0.31665042473660826 0.8844205571128184 0.31665042473660826 0.11557944288718153 -0.31665042473660826
8.77E8 0.11045259855174655 -0.3102952538426517 0.8895474014482535 0.3102952538426517 0.8895474014482535 0.3102952538426517 0.11045259855174655 -0.3102952538426517
8.98E8 0.10562846778072799 -0.30411440915034 0.8943715322192719 0.30411440915034 0.8943715322192719 0.30411440915034 0.10562846778072799 -0.30411440915034
9.19E8 0.10108484540781466 -0.2981036389898887 0.8989151545921856 0.2981036389898887 0.8989151545921856 0.2981036389898887 0.10108484540781466 -0.2981036389898887
9.4E8 0.09680142104262839 -0.2922584279023265 0.9031985789573714 0.2922584279023265 0.9031985789573714 0.2922584279023265 0.09680142104262839 -0.2922584279023265
9.61E8 0.09275960123770935 -0.2865740845263778 0.9072403987622908 0.2865740845263778 0.9072403987622908 0.2865740845263778 0.09275960123770935 -0.2865740845263778
9.82E8 0.08894234897766518 -0.28104581257817673 0.9110576510223347 0.28104581257817673 0.9110576510223347 0.28104581257817673 0.08894234897766518 -0.28104581257817673
1.003E9 0.0853340389012532 -0.27566876790748623 0.9146659610987466 0.27566876790748623 0.9146659610987466 0.27566876790748623 0.0853340389012532 -0.27566876790748623
1.024E9 0.08192032676573166 -0.27043810409385227 0.9180796732342682 0.27043810409385227 0.9180796732342682 0.27043810409385227 0.08192032676573166 -0.27043810409385227
1.045E9 0.07868803177137375 -0.26534900861694083 0.921311968228626 0.26534900861694083 0.921311968228626 0.26534900861694083 0.07868803177137375 -0.26534900861694083
1.066E9 0.07562503047583473 -0.2603967312812288 0.9243749695241653 0.2603967312812288 0.9243749695241653 0.2603967312812288 0.07562503047583473 -0.2603967312812288
1.087E9 0.07272016113861007 -0.2555766062830847 0.9272798388613898 0.2555766062830847 0.9272798388613898 0.2555766062830847 0.07272016113861007 -0.2555766062830847
1.108E9 0.06996313744221326 -0.25088406906716537 0.9300368625577867 0.25088406906716537 0.9300368625577867 0.25088406906716537 0.06996313744221326 -0.25088406906716537
1.129E9 0.0673444706371656 -0.24631466891998183 0.9326555293628342 0.24631466891998183 0.9326555293628342 0.24631466891998183 0.0673444706371656 -0.24631466891998183
1.15E9 0.06485539925145915 -0.24186407808405525 0.9351446007485409 0.24186407808405525 0.9351446007485409 0.24186407808405525 0.06485539925145915 -0.24186407808405525
1.171E9 0.06248782559139279 -0.2375280980401702 0.9375121744086071 0.2375280980401702 0.9375121744086071 0.2375280980401702 0.06248782559139279 -0.2375280980401702
1.192E9 0.0602342583395536 -0.23330266349286566 0.9397657416604466 0.23330266349286566 0.9397657416604466 0.23330266349286566 0.0602342583395536 -0.23330266349286566
1.213E9 0.05808776062739534 -0.22918384450131452 0.9419122393726046 0.22918384450131452 0.9419122393726046 0.22918384450131452 0.05808776062739534 -0.22918384450131452
1.234E9 0.05604190302471567 -0.2251678471207808 0.9439580969752843 0.2251678471207808 0.9439580969752843 0.2251678471207808 0.05604190302471567 -0.2251678471207808
1.255E9 0.05409072094677304 -0.2212510128560894 0.9459092790532269 0.2212510128560894 0.9459092790532269 0.2212510128560894 0.05409072094677304 -0.2212510128560894
1.276E9 0.05222867603230545 -0.21742981717572063 0.9477713239676944 0.21742981717572063 0.9477713239676944 0.21742981717572063 0.05222867603230545 -0.21742981717572063
1.297E9 0.050450621092800595 -0.2137008672913493 0.9495493789071994 0.2137008672913493 0.9495493789071994 0.2137008672913493 0.050450621092800595 -0.2137008672913493
1.318E9 0.048751768275515577 -0.21006089937133507 0.9512482317244846 0.21006089937133507 0.9512482317244846 0.21006089937133507 0.048751768275515577 -0.21006089937133507
1.339E9 0.047127660120416554 -0.2065067753265458 0.9528723398795836 0.2065067753265458 0.9528723398795836 0.2065067753265458 0.047127660120416554 -0.2065067753265458
1.36E9 0.04557414322485379 -0.20303547928190774 0.9544258567751464 0.20303547928190774 0.9544258567751464 0.20303547928190774 0.04557414322485379 -0.20303547928190774
1.381E9 0.04408734425980849 -0.1996441138263412 0.9559126557401915 0.1996441138263412 0.9559126557401915 0.1996441138263412 0.04408734425980849 -0.1996441138263412
1.402E9 0.04266364810832848 -0.19632989611654064 0.9573363518916714 0.19632989611654064 0.9573363518916714 0.19632989611654064 0.04266364810832848 -0.19632989611654064
1.423E9 0.04129967792065132 -0.1930901538957936 0.9587003220793487 0.1930901538957936 0.9587003220793487 0.1930901538957936 0.04129967792065132 -0.1930901538957936
1.444E9 0.03999227690180665 -0.18992232147720486 0.9600077230981935 0.18992232147720486 0.9600077230981935 0.18992232147720486 0.03999227690180665 -0.18992232147720486
1.465E9 0.03873849166648055 -0.18682393573089445 0.9612615083335193 0.18682393573089445 0.9612615083335193 0.18682393573089445 0.03873849166648055 -0.18682393573089445
1.486E9 0.03753555701285963 -0.1837926321066267 0.9624644429871405 0.1837926321066267 0.9624644429871405 0.1837926321066267 0.03753555701285963 -0.1837926321066267
1.507E9 0.036380881982283654 -0.18082614071662045 0.9636191180177163 0.18082614071662045 0.9636191180177163 0.18082614071662045 0.036380881982283654 -0.18082614071662045
1.528E9 0.03527203708501933 -0.17792228249775258 0.9647279629149805 0.17792228249775258 0.9647279629149805 0.17792228249775258 0.03527203708501933 -0.17792228249775258
1.549E9 0.0342067425845092 -0.17507896546780072 0.9657932574154906 0.17507896546780072 0.9657932574154906 0.17507896546780072 0.0342067425845092 -0.17507896546780072
1.57E9 0.033182857743204515 -0.17229418108661998 0.9668171422567957 0.17229418108661998 0.9668171422567957 0.17229418108661998 0.033182857743204515 -0.17229418108661998
1.591E9 0.03219837094270469 -0.1695660007300664 0.9678016290572952 0.1695660007300664 0.9678016290572952 0.1695660007300664 0.03219837094270469 -0.1695660007300664
1.612E9 0.03125139059952362 -0.1668925722819659 0.9687486094004765 0.1668925722819659 0.9687486094004765 0.1668925722819659 0.03125139059952362 -0.1668925722819659
1.633E9 0.03034013680549651 -0.1642721168473755 0.9696598631945035 0.1642721168473755 0.9696598631945035 0.1642721168473755 0.03034013680549651 -0.1642721168473755
1.654E9 0.02946293362873161 -0.1617029255887275 0.9705370663712686 0.1617029255887275 0.9705370663712686 0.1617029255887275 0.02946293362873161 -0.1617029255887275
1.675E9 0.028618202017184968 -0.15918335668510894 0.971381797982815 0.15918335668510894 0.971381797982815 0.15918335668510894 0.028618202017184968 -0.15918335668510894
1.696E9 0.027804453252472643 -0.1567118324138616 0.9721955467475274 0.1567118324138616 0.9721955467475274 0.1567118324138616 0.027804453252472643 -0.1567118324138616
1.717E9 0.02702028290650446 -0.15428683635284554 0.9729797170934957 0.15428683635284554 0.9729797170934957 0.15428683635284554 0.02702028290650446 -0.15428683635284554
1.738E9 0.026264365257985055 -0.15190691070104825 0.973735634742015 0.15190691070104825 0.973735634742015 0.15190691070104825 0.026264365257985055 -0.15190691070104825
1.759E9 0.025535448129838566 -0.1495706537147156 0.9744645518701616 0.1495706537147156 0.9744645518701616 0.1495706537147156 0.025535448129838566 -0.1495706537147156
1.78E9 0.024832348112221035 -0.1472767172558001 0.9751676518877789 0.1472767172558001 0.9751676518877789 0.1472767172558001 0.024832348112221035 -0.1472767172558001
1.801E9 0.02415394613903155 -0.1450238044492468 0.9758460538609683 0.1450238044492468 0.9758460538609683 0.1450238044492468 0.02415394613903155 -0.1450238044492468
1.822E9 0.02349918338875834 -0.14281066744544296 0.9765008166112417 0.14281066744544296 0.9765008166112417 0.14281066744544296 0.02349918338875834 -0.14281066744544296
1.843E9 0.022867057483133616 -0.14063610528403847 0.9771329425168666 0.14063610528403847 0.9771329425168666 0.14063610528403847 0.022867057483133616 -0.14063610528403847
1.864E9 0.022256618959450143 -0.1384989618552763 0.9777433810405498 0.1384989618552763 0.9777433810405498 0.1384989618552763 0.022256618959450143 -0.1384989618552763
1.885E9 0.02166696799454164 -0.136398123954954 0.9783330320054583 0.136398123954954 0.9783330320054583 0.136398123954954 0.02166696799454164 -0.136398123954954
1.906E9 0.021097251360370748 -0.1343325194291529 0.9789027486396294 0.1343325194291529 0.9789027486396294 0.1343325194291529 0.021097251360370748 -0.1343325194291529
1.927E9 0.020546659592924076 -0.13230111540491776 0.979453340407076 0.13230111540491776 0.979453340407076 0.13230111540491776 0.020546659592924076 -0.13230111540491776
1.948E9 0.02001442435770419 -0.13030291660313947 0.9799855756422958 0.13030291660313947 0.9799855756422958 0.13030291660313947 0.02001442435770419 -0.13030291660313947
1.969E9 0.019499815996547227 -0.1283369637299778 0.9805001840034528 0.1283369637299778 0.9805001840034528 0.1283369637299778 0.019499815996547227 -0.1283369637299778
1.99E9 0.01900214124180093 -0.12640233194326286 0.9809978587581991 0.12640233194326286 0.9809978587581991 0.12640233194326286 0.01900214124180093 -0.12640233194326286
2.011E9 0.01852074108508125 -0.12449812939042271 0.9814792589149188 0.12449812939042271 0.9814792589149188 0.12449812939042271 0.01852074108508125 -0.12449812939042271
2.032E9 0.018054988788901258 -0.12262349581460065 0.9819450112110988 0.12262349581460065 0.9819450112110988 0.12262349581460065 0.018054988788901258 -0.12262349581460065
2.053E9 0.01760428803044243 -0.12077760122574781 0.9823957119695576 0.12077760122574781 0.9823957119695576 0.12077760122574781 0.01760428803044243 -0.12077760122574781
2.074E9 0.017168071167627284 -0.11895964463360063 0.9828319288323729 0.11895964463360063 0.9828319288323729 0.11895964463360063 0.017168071167627284 -0.11895964463360063
2.095E9 0.016745797618459405 -0.11716885283957487 0.9832542023815407 0.11716885283957487 0.9832542023815407 0.11716885283957487 0.016745797618459405 -0.11716885283957487
2.116E9 0.016336952345334086 -0.11540447928473645 0.9836630476546656 0.11540447928473645 0.9836630476546656 0.11540447928473645 0.016336952345334086 -0.11540447928473645
2.137E9 0.01594104443669278 -0.11366580295112942 0.9840589555633074 0.11366580295112942 0.9840589555633074 0.11366580295112942 0.01594104443669278 -0.11366580295112942
2.158E9 0.015557605779006277 -0.11195212731386325 0.9844423942209937 0.11195212731386325 0.9844423942209937 0.11195212731386325 0.015557605779006277 -0.11195212731386325
2.179E9 0.015186189812630129 -0.11026277934148132 0.9848138101873699 0.11026277934148132 0.9848138101873699 0.11026277934148132 0.015186189812630129 -0.11026277934148132
2.2E9 0.01482637036558507 -0.1085971085422461 0.985173629634415 0.1085971085422461 0.985173629634415 0.1085971085422461 0.01482637036558507 -0.1085971085422461
2.221E9 0.014477740559781682 -0.10695448605408997 0.9855222594402183 0.10695448605408997 0.9855222594402183 0.10695448605408997 0.014477740559781682 -0.10695448605408997
2.242E9 0.01413991178463418 -0.10533430377608732 0.9858600882153659 0.10533430377608732 0.9858600882153659 0.10533430377608732 0.01413991178463418 -0.10533430377608732
2.263E9 0.013812512733398327 -0.103735973539408 0.9861874872666019 0.103735973539408 0.9861874872666019 0.103735973539408 0.013812512733398327 -0.103735973539408
2.284E9 0.013495188497925822 -0.10215892631581396 0.9865048115020744 0.10215892631581396 0.9865048115020744 0.10215892631581396 0.013495188497925822 -0.10215892631581396
2.305E9 0.013187599717854362 -0.10060261146185384 0.9868124002821456 0.10060261146185384 0.9868124002821456 0.10060261146185384 0.013187599717854362 -0.10060261146185384
2.326E9 0.012889421780553084 -0.0990664959970053 0.9871105782194469 0.0990664959970053 0.9871105782194469 0.0990664959970053 0.012889421780553084 -0.0990664959970053
2.347E9 0.01260034406841825 -0.09755006391410029 0.9873996559315816 0.09755006391410029 0.9873996559315816 0.09755006391410029 0.01260034406841825 -0.09755006391410029
2.368E9 0.012320069250367176 -0.09605281552045505 0.9876799307496328 0.09605281552045505 0.9876799307496328 0.09605281552045505 0.012320069250367176 -0.09605281552045505
2.389E9 0.012048312614610463 -0.09457426680820356 0.9879516873853893 0.09457426680820356 0.9879516873853893 0.09457426680820356 0.012048312614610463 -0.09457426680820356
2.41E9 0.011784801439996547 -0.09311394885241239 0.9882151985600036 0.09311394885241239 0.9882151985600036 0.09311394885241239 0.011784801439996547 -0.09311394885241239
2.431E9 0.011529274403418749 -0.09167140723562454 0.9884707255965814 0.09167140723562454 0.9884707255965814 0.09167140723562454 0.011529274403418749 -0.09167140723562454
2.452E9 0.011281481020956476 -0.09024620149755219 0.9887185189790437 0.09024620149755219 0.9887185189790437 0.09024620149755219 0.011281481020956476 -0.09024620149755219
2.473E9 0.011041181120588299 -0.08883790460870059 0.9889588188794115 0.08883790460870059 0.9889588188794115 0.08883790460870059 0.011041181120588299 -0.08883790460870059
2.494E9 0.01080814434446865 -0.08744610246676963 0.9891918556555316 0.08744610246676963 0.9891918556555316 0.08744610246676963 0.01080814434446865 -0.08744610246676963
2.515E9 0.010582149678901396 -0.08607039341473809 0.9894178503210989 0.08607039341473809 0.9894178503210989 0.08607039341473809 0.010582149678901396 -0.08607039341473809
2.536E9 0.010362985010274238 -0.08471038777959139 0.989637014989726 0.08471038777959139 0.989637014989726 0.08471038777959139 0.010362985010274238 -0.08471038777959139
