!Murata Part Number: GRM0335C1E8R0CA01
!These Parameters are Measured in Series Mode Connection
!       o--ll--o
!Port1            Port2
!       o------o
!Operation Temp=25[degC], DC Bias Voltage=0[V]
!Freq. Start=100[MHz] Stop=8.5[GHz], 401[Steps]
!Data Generated on Jan 10, 2018
# Hz S RI R 50
!Freq.(Hz) S11(Real) S11(Imag) S21(Real) S21(Imag) S12(Real) S12(Imag) S22(Real) S22(Imag)
1.0E8 0.7978068303573096 -0.4011694451414624 0.20219316964269043 0.4011694451414624 0.20219316964269043 0.4011694451414624 0.7978068303573096 -0.4011694451414624
1.21E8 0.7292539205351777 -0.44378048893469196 0.2707460794648223 0.44378048893469196 0.2707460794648223 0.44378048893469196 0.7292539205351777 -0.44378048893469196
1.42E8 0.661525491263427 -0.4725270485705919 0.3384745087365731 0.4725270485705919 0.3384745087365731 0.4725270485705919 0.661525491263427 -0.4725270485705919
1.63E8 0.5971201101550121 -0.48971372497121635 0.40287988984498785 0.48971372497121635 0.40287988984498785 0.48971372497121635 0.5971201101550121 -0.48971372497121635
1.84E8 0.537486921622359 -0.4977293686615472 0.46251307837764094 0.4977293686615472 0.46251307837764094 0.4977293686615472 0.537486921622359 -0.4977293686615472
2.05E8 0.4832804906312778 -0.49875624337235747 0.5167195093687221 0.49875624337235747 0.5167195093687221 0.49875624337235747 0.4832804906312778 -0.49875624337235747
2.26E8 0.43461613472252836 -0.4946409069107285 0.5653838652774715 0.4946409069107285 0.5653838652774715 0.4946409069107285 0.43461613472252836 -0.4946409069107285
2.47E8 0.39127853586741707 -0.48686864493753756 0.608721464132583 0.48686864493753756 0.608721464132583 0.48686864493753756 0.39127853586741707 -0.48686864493753756
2.68E8 0.3528729407986214 -0.47659260644474394 0.6471270592013786 0.47659260644474394 0.6471270592013786 0.47659260644474394 0.3528729407986214 -0.47659260644474394
2.89E8 0.3189257417662142 -0.4646851344179334 0.6810742582337859 0.4646851344179334 0.6810742582337859 0.4646851344179334 0.3189257417662142 -0.4646851344179334
3.1E8 0.2889466373604361 -0.4517929260153967 0.7110533626395639 0.4517929260153967 0.7110533626395639 0.4517929260153967 0.2889466373604361 -0.4517929260153967
3.31E8 0.26246414657291617 -0.4383872348502961 0.7375358534270838 0.4383872348502961 0.7375358534270838 0.4383872348502961 0.26246414657291617 -0.4383872348502961
3.52E8 0.23904379156612038 -0.4248059130752762 0.7609562084338797 0.4248059130752762 0.7609562084338797 0.4248059130752762 0.23904379156612038 -0.4248059130752762
3.73E8 0.21829559970531826 -0.4112869567761867 0.7817044002946816 0.4112869567761867 0.7817044002946816 0.4112869567761867 0.21829559970531826 -0.4112869567761867
3.94E8 0.19987537490485455 -0.3979944744266086 0.8001246250951455 0.3979944744266086 0.8001246250951455 0.3979944744266086 0.19987537490485455 -0.3979944744266086
4.15E8 0.18348257904947327 -0.38503839843916504 0.8165174209505268 0.38503839843916504 0.8165174209505268 0.38503839843916504 0.18348257904947327 -0.38503839843916504
4.36E8 0.1688565664589843 -0.3724892528745921 0.8311434335410157 0.3724892528745921 0.8311434335410157 0.3724892528745921 0.1688565664589843 -0.3724892528745921
4.57E8 0.15577219912637807 -0.3603891194949418 0.8442278008736218 0.3603891194949418 0.8442278008736218 0.3603891194949418 0.15577219912637807 -0.3603891194949418
4.78E8 0.14403542015665932 -0.3487597306053321 0.8559645798433406 0.3487597306053321 0.8559645798433406 0.3487597306053321 0.14403542015665932 -0.3487597306053321
4.99E8 0.1334790875140592 -0.3376084144757716 0.8665209124859409 0.3376084144757716 0.8665209124859409 0.3376084144757716 0.1334790875140592 -0.3376084144757716
5.2E8 0.12395920673268529 -0.3269324472758068 0.8760407932673145 0.3269324472758068 0.8760407932673145 0.3269324472758068 0.12395920673268529 -0.3269324472758068
5.41E8 0.11535160754640457 -0.3167222279464314 0.8846483924535954 0.3167222279464314 0.8846483924535954 0.3167222279464314 0.11535160754640457 -0.3167222279464314
5.62E8 0.10754905825114067 -0.30696358608206886 0.8924509417488592 0.30696358608206886 0.8924509417488592 0.30696358608206886 0.10754905825114067 -0.30696358608206886
5.83E8 0.10045878586646703 -0.2976394523422295 0.8995412141335328 0.2976394523422295 0.8995412141335328 0.2976394523422295 0.10045878586646703 -0.2976394523422295
6.04E8 0.0940003591816151 -0.28873106069509696 0.905999640818385 0.28873106069509696 0.905999640818385 0.28873106069509696 0.0940003591816151 -0.28873106069509696
6.25E8 0.0881038890732711 -0.2802188071468472 0.911896110926729 0.2802188071468472 0.911896110926729 0.2802188071468472 0.0881038890732711 -0.2802188071468472
6.46E8 0.08270850218441725 -0.2720828566679084 0.9172914978155826 0.2720828566679084 0.9172914978155826 0.2720828566679084 0.08270850218441725 -0.2720828566679084
6.67E8 0.07776104787252965 -0.26430356578688835 0.9222389521274703 0.26430356578688835 0.9222389521274703 0.26430356578688835 0.07776104787252965 -0.26430356578688835
6.88E8 0.07321500296577557 -0.2568617705065759 0.9267849970342245 0.2568617705065759 0.9267849970342245 0.2568617705065759 0.07321500296577557 -0.2568617705065759
7.09E8 0.0690295435891603 -0.24973897610330983 0.9309704564108396 0.24973897610330983 0.9309704564108396 0.24973897610330983 0.0690295435891603 -0.24973897610330983
7.3E8 0.0651687577688391 -0.24291747574337325 0.934831242231161 0.24291747574337325 0.934831242231161 0.24291747574337325 0.0651687577688391 -0.24291747574337325
7.51E8 0.06160097652422512 -0.23638041776338603 0.938399023475775 0.23638041776338603 0.938399023475775 0.23638041776338603 0.06160097652422512 -0.23638041776338603
7.72E8 0.058298204660293236 -0.23011183623863032 0.941701795339707 0.23011183623863032 0.941701795339707 0.23011183623863032 0.058298204660293236 -0.23011183623863032
7.93E8 0.0552356354841804 -0.22409665560841985 0.9447643645158197 0.22409665560841985 0.9447643645158197 0.22409665560841985 0.0552356354841804 -0.22409665560841985
8.14E8 0.05239123622882452 -0.21832067727873453 0.9476087637711756 0.21832067727873453 0.9476087637711756 0.21832067727873453 0.05239123622882452 -0.21832067727873453
8.35E8 0.04974539312265999 -0.21277055401429723 0.9502546068773402 0.21277055401429723 0.9502546068773402 0.21277055401429723 0.04974539312265999 -0.21277055401429723
8.56E8 0.04728060685180488 -0.20743375637087239 0.9527193931481952 0.20743375637087239 0.9527193931481952 0.20743375637087239 0.04728060685180488 -0.20743375637087239
8.77E8 0.04498123067089261 -0.20229853426129144 0.9550187693291075 0.20229853426129144 0.9550187693291075 0.20229853426129144 0.04498123067089261 -0.20229853426129144
8.98E8 0.04283324467708355 -0.19735387589076986 0.9571667553229165 0.19735387589076986 0.9571667553229165 0.19735387589076986 0.04283324467708355 -0.19735387589076986
9.19E8 0.040824060809533075 -0.19258946566124907 0.9591759391904668 0.19258946566124907 0.9591759391904668 0.19258946566124907 0.040824060809533075 -0.19258946566124907
9.4E8 0.03894235400866017 -0.18799564217374556 0.9610576459913398 0.18799564217374556 0.9610576459913398 0.18799564217374556 0.03894235400866017 -0.18799564217374556
9.61E8 0.037177915695590334 -0.18356335710979446 0.9628220843044096 0.18356335710979446 0.9628220843044096 0.18356335710979446 0.037177915695590334 -0.18356335710979446
9.82E8 0.03552152633701489 -0.1792841355167252 0.9644784736629849 0.1792841355167252 0.9644784736629849 0.1792841355167252 0.03552152633701489 -0.1792841355167252
1.003E9 0.03396484436515698 -0.1751500378334055 0.966035155634843 0.1751500378334055 0.966035155634843 0.1751500378334055 0.03396484436515698 -0.1751500378334055
1.024E9 0.032500309143781075 -0.17115362385589755 0.967499690856219 0.17115362385589755 0.967499690856219 0.17115362385589755 0.032500309143781075 -0.17115362385589755
1.045E9 0.031121056023480698 -0.16728791874323803 0.9688789439765193 0.16728791874323803 0.9688789439765193 0.16728791874323803 0.031121056023480698 -0.16728791874323803
1.066E9 0.029820841824599084 -0.16354638109259592 0.9701791581754007 0.16354638109259592 0.9701791581754007 0.16354638109259592 0.029820841824599084 -0.16354638109259592
1.087E9 0.028593979333801818 -0.15992287306314829 0.9714060206661983 0.15992287306314829 0.9714060206661983 0.15992287306314829 0.028593979333801818 -0.15992287306314829
1.108E9 0.027435279608544277 -0.15641163249370119 0.9725647203914557 0.15641163249370119 0.9725647203914557 0.15641163249370119 0.027435279608544277 -0.15641163249370119
1.129E9 0.026340001059078397 -0.15300724693630727 0.9736599989409216 0.15300724693630727 0.9736599989409216 0.15300724693630727 0.026340001059078397 -0.15300724693630727
1.15E9 0.025303804425689004 -0.14970462951384053 0.974696195574311 0.14970462951384053 0.974696195574311 0.14970462951384053 0.025303804425689004 -0.14970462951384053
1.171E9 0.024322712894053706 -0.1464989965013893 0.9756772871059465 0.1464989965013893 0.9756772871059465 0.1464989965013893 0.024322712894053706 -0.1464989965013893
1.192E9 0.023393076697720852 -0.14338584652770567 0.9766069233022792 0.14338584652770567 0.9766069233022792 0.14338584652770567 0.023393076697720852 -0.14338584652770567
1.213E9 0.022511541646794038 -0.1403609412925223 0.977488458353206 0.1403609412925223 0.977488458353206 0.1403609412925223 0.022511541646794038 -0.1403609412925223
1.234E9 0.02167502109856683 -0.13742028769735448 0.9783249789014333 0.13742028769735448 0.9783249789014333 0.13742028769735448 0.02167502109856683 -0.13742028769735448
1.255E9 0.020880670951204876 -0.13456012129073322 0.9791193290487953 0.13456012129073322 0.9791193290487953 0.13456012129073322 0.020880670951204876 -0.13456012129073322
1.276E9 0.020125867297400964 -0.13177689093314032 0.979874132702599 0.13177689093314032 0.979874132702599 0.13177689093314032 0.020125867297400964 -0.13177689093314032
1.297E9 0.019408186422714604 -0.12906724459184388 0.9805918135772853 0.12906724459184388 0.9805918135772853 0.12906724459184388 0.019408186422714604 -0.12906724459184388
1.318E9 0.018725386874290168 -0.12642801618108324 0.9812746131257097 0.12642801618108324 0.9812746131257097 0.12642801618108324 0.018725386874290168 -0.12642801618108324
1.339E9 0.018075393360862724 -0.12385621336842137 0.9819246066391375 0.12385621336842137 0.9819246066391375 0.12385621336842137 0.018075393360862724 -0.12385621336842137
1.36E9 0.017456282275277547 -0.12134900627341937 0.9825437177247226 0.12134900627341937 0.9825437177247226 0.12134900627341937 0.017456282275277547 -0.12134900627341937
1.381E9 0.016866268656899167 -0.11890371699000077 0.9831337313431008 0.11890371699000077 0.9831337313431008 0.11890371699000077 0.016866268656899167 -0.11890371699000077
1.402E9 0.016303694433881556 -0.11651780986888327 0.9836963055661186 0.11651780986888327 0.9836963055661186 0.11651780986888327 0.016303694433881556 -0.11651780986888327
1.423E9 0.015767017804832573 -0.11418888250122776 0.9842329821951676 0.11418888250122776 0.9842329821951676 0.11418888250122776 0.015767017804832573 -0.11418888250122776
1.444E9 0.015254803636370266 -0.11191465734916163 0.9847451963636297 0.11191465734916163 0.9847451963636297 0.11191465734916163 0.015254803636370266 -0.11191465734916163
1.465E9 0.014765714767806328 -0.10969297397305817 0.9852342852321937 0.10969297397305817 0.9852342852321937 0.10969297397305817 0.014765714767806328 -0.10969297397305817
1.486E9 0.014298504127017702 -0.10752178180940046 0.9857014958729824 0.10752178180940046 0.9857014958729824 0.10752178180940046 0.014298504127017702 -0.10752178180940046
1.507E9 0.013852007572748282 -0.10539913345672784 0.9861479924272516 0.10539913345672784 0.9861479924272516 0.10539913345672784 0.013852007572748282 -0.10539913345672784
1.528E9 0.013425137388344808 -0.10332317843056125 0.9865748626116552 0.10332317843056125 0.9865748626116552 0.10332317843056125 0.013425137388344808 -0.10332317843056125
1.549E9 0.013016876360469573 -0.10129215735134611 0.9869831236395302 0.10129215735134611 0.9869831236395302 0.10129215735134611 0.013016876360469573 -0.10129215735134611
1.57E9 0.012626272383812222 -0.09930439653235135 0.9873737276161877 0.09930439653235135 0.9873737276161877 0.09930439653235135 0.012626272383812222 -0.09930439653235135
1.591E9 0.012252433539384912 -0.09735830293713024 0.9877475664606151 0.09735830293713024 0.9877475664606151 0.09735830293713024 0.012252433539384912 -0.09735830293713024
1.612E9 0.011894523599751728 -0.09545235947860467 0.9881054764002484 0.09545235947860467 0.9881054764002484 0.09545235947860467 0.011894523599751728 -0.09545235947860467
1.633E9 0.011551757919617928 -0.09358512063408904 0.9884482420803822 0.09358512063408904 0.9884482420803822 0.09358512063408904 0.011551757919617928 -0.09358512063408904
1.654E9 0.011223399674676737 -0.09175520835263874 0.988776600325323 0.09175520835263874 0.988776600325323 0.09175520835263874 0.011223399674676737 -0.09175520835263874
1.675E9 0.010908756415559358 -0.0899613082330086 0.9890912435844407 0.0899613082330086 0.9890912435844407 0.0899613082330086 0.010908756415559358 -0.0899613082330086
1.696E9 0.010607176907222494 -0.08820216595224548 0.9893928230927775 0.08820216595224548 0.9893928230927775 0.08820216595224548 0.010607176907222494 -0.08820216595224548
1.717E9 0.010318048227196158 -0.08647658392653754 0.9896819517728038 0.08647658392653754 0.9896819517728038 0.08647658392653754 0.010318048227196158 -0.08647658392653754
1.738E9 0.01004079309885139 -0.08478341818740293 0.9899592069011484 0.08478341818740293 0.9899592069011484 0.08478341818740293 0.01004079309885139 -0.08478341818740293
1.759E9 0.009774867438276722 -0.0831215754576425 0.9902251325617232 0.0831215754576425 0.9902251325617232 0.0831215754576425 0.009774867438276722 -0.0831215754576425
1.78E9 0.00951975809551093 -0.08149001041270931 0.9904802419044892 0.08149001041270931 0.9904802419044892 0.08149001041270931 0.00951975809551093 -0.08149001041270931
1.801E9 0.009274980772800168 -0.07988772311427224 0.9907250192271999 0.07988772311427224 0.9907250192271999 0.07988772311427224 0.009274980772800168 -0.07988772311427224
1.822E9 0.009040078104259231 -0.07831375660378509 0.9909599218957408 0.07831375660378509 0.9909599218957408 0.07831375660378509 0.009040078104259231 -0.07831375660378509
1.843E9 0.008814617882842712 -0.07676719464481617 0.9911853821171572 0.07676719464481617 0.9911853821171572 0.07676719464481617 0.008814617882842712 -0.07676719464481617
1.864E9 0.00859819142189555 -0.07524715960376309 0.9914018085781044 0.07524715960376309 0.9914018085781044 0.07524715960376309 0.00859819142189555 -0.07524715960376309
1.885E9 0.008390412039771245 -0.07375281045937154 0.9916095879602288 0.07375281045937154 0.9916095879602288 0.07375281045937154 0.008390412039771245 -0.07375281045937154
1.906E9 0.008190913657097483 -0.07228334093220938 0.9918090863429027 0.07228334093220938 0.9918090863429027 0.07228334093220938 0.008190913657097483 -0.07228334093220938
1.927E9 0.007999349497246802 -0.07083797772591474 0.9920006505027531 0.07083797772591474 0.9920006505027531 0.07083797772591474 0.007999349497246802 -0.07083797772591474
1.948E9 0.007815390881447707 -0.06941597887265577 0.9921846091185524 0.06941597887265577 0.9921846091185524 0.06941597887265577 0.007815390881447707 -0.06941597887265577
1.969E9 0.007638726110759736 -0.06801663217580274 0.9923612738892402 0.06801663217580274 0.9923612738892402 0.06801663217580274 0.007638726110759736 -0.06801663217580274
1.99E9 0.00746905942784485 -0.0666392537433345 0.9925309405721553 0.0666392537433345 0.9925309405721553 0.0666392537433345 0.00746905942784485 -0.0666392537433345
2.011E9 0.007306110052105569 -0.06528318660597861 0.9926938899478944 0.06528318660597861 0.9926938899478944 0.06528318660597861 0.007306110052105569 -0.06528318660597861
2.032E9 0.00714961128233522 -0.06394779941452491 0.9928503887176648 0.06394779941452491 0.9928503887176648 0.06394779941452491 0.00714961128233522 -0.06394779941452491
2.053E9 0.006999309661544153 -0.0626324852111558 0.9930006903384562 0.0626324852111558 0.9930006903384562 0.0626324852111558 0.006999309661544153 -0.0626324852111558
2.074E9 0.006854964199094261 -0.06133666027001103 0.9931450358009056 0.06133666027001103 0.9931450358009056 0.06133666027001103 0.006854964199094261 -0.06133666027001103
2.095E9 0.006716345645697108 -0.06005976300254661 0.9932836543543031 0.06005976300254661 0.9932836543543031 0.06005976300254661 0.006716345645697108 -0.06005976300254661
2.116E9 0.006583235817213979 -0.05880125292356409 0.9934167641827859 0.05880125292356409 0.9934167641827859 0.05880125292356409 0.006583235817213979 -0.05880125292356409
2.137E9 0.006455426963542933 -0.057560609674080075 0.9935445730364569 0.057560609674080075 0.9935445730364569 0.057560609674080075 0.006455426963542933 -0.057560609674080075
2.158E9 0.006332721179192028 -0.05633733209747256 0.9936672788208079 0.05633733209747256 0.9936672788208079 0.05633733209747256 0.006332721179192028 -0.05633733209747256
2.179E9 0.006214929852423119 -0.05513093736559136 0.9937850701475771 0.05513093736559136 0.9937850701475771 0.05513093736559136 0.006214929852423119 -0.05513093736559136
2.2E9 0.006101873150109486 -0.05394096015174874 0.9938981268498907 0.05394096015174874 0.9938981268498907 0.05394096015174874 0.006101873150109486 -0.05394096015174874
2.221E9 0.005993379535685794 -0.0527669518477188 0.9940066204643142 0.0527669518477188 0.9940066204643142 0.0527669518477188 0.005993379535685794 -0.0527669518477188
2.242E9 0.005889285317782903 -0.05160847982206986 0.9941107146822173 0.05160847982206986 0.9941107146822173 0.05160847982206986 0.005889285317782903 -0.05160847982206986
2.263E9 0.005789434227334958 -0.05046512671733692 0.9942105657726651 0.05046512671733692 0.9942105657726651 0.05046512671733692 0.005789434227334958 -0.05046512671733692
2.284E9 0.005693677021123637 -0.04933648978370761 0.9943063229788763 0.04933648978370761 0.9943063229788763 0.04933648978370761 0.005693677021123637 -0.04933648978370761
2.305E9 0.005601871109886349 -0.04822218024705215 0.9943981288901137 0.04822218024705215 0.9943981288901137 0.04822218024705215 0.005601871109886349 -0.04822218024705215
2.326E9 0.005513880209262991 -0.04712182270927117 0.9944861197907369 0.04712182270927117 0.9944861197907369 0.04712182270927117 0.005513880209262991 -0.04712182270927117
2.347E9 0.005429574011990743 -0.04603505457906899 0.9945704259880093 0.04603505457906899 0.9945704259880093 0.04603505457906899 0.005429574011990743 -0.04603505457906899
2.368E9 0.005348827879879793 -0.044961525531384376 0.9946511721201203 0.044961525531384376 0.9946511721201203 0.044961525531384376 0.005348827879879793 -0.044961525531384376
2.389E9 0.005271522554215743 -0.0439008969938253 0.9947284774457842 0.0439008969938253 0.9947284774457842 0.0439008969938253 0.005271522554215743 -0.0439008969938253
2.41E9 0.005197543883337722 -0.04285284165856119 0.9948024561166623 0.04285284165856119 0.9948024561166623 0.04285284165856119 0.005197543883337722 -0.04285284165856119
2.431E9 0.005126782566235916 -0.041817043018225544 0.9948732174337639 0.041817043018225544 0.9948732174337639 0.041817043018225544 0.005126782566235916 -0.041817043018225544
2.452E9 0.005059133911099037 -0.04079319492447394 0.9949408660889011 0.04079319492447394 0.9949408660889011 0.04079319492447394 0.005059133911099037 -0.04079319492447394
2.473E9 0.004994497607821796 -0.03978100116792781 0.9950055023921782 0.03978100116792781 0.9950055023921782 0.03978100116792781 0.004994497607821796 -0.03978100116792781
2.494E9 0.004932777513555669 -0.038780175078314806 0.9950672224864442 0.038780175078314806 0.9950672224864442 0.038780175078314806 0.004932777513555669 -0.038780175078314806
2.515E9 0.004873881450453276 -0.03779043914369017 0.9951261185495468 0.03779043914369017 0.9951261185495468 0.03779043914369017 0.004873881450453276 -0.03779043914369017
