!Murata Part Number: GRM0335C1ER50WA01
!These Parameters are Measured in Series Mode Connection
!       o--ll--o
!Port1            Port2
!       o------o
!Operation Temp=25[degC], DC Bias Voltage=0[V]
!Freq. Start=100[MHz] Stop=20[GHz], 401[Steps]
!Data Generated on Jan 10, 2017
# Hz S RI R 50
!Freq.(Hz) S11(Real) S11(Imag) S21(Real) S21(Imag) S12(Real) S12(Imag) S22(Real) S22(Imag)
1.0E8 0.9990050236862917 -0.03138619083647062 9.94976313708437E-4 0.03138619083647062 9.94976313708437E-4 0.03138619083647062 0.9990050236862917 -0.03138619083647062
1.4975E8 0.9977712338104378 -0.04694560391810127 0.002228766189562114 0.04694560391810127 0.002228766189562114 0.04694560391810127 0.9977712338104378 -0.04694560391810127
1.995E8 0.9960504630604052 -0.06243929290422002 0.003949536939594808 0.06243929290422002 0.003949536939594808 0.06243929290422002 0.9960504630604052 -0.06243929290422002
2.4925E8 0.9938472193784761 -0.07784587012489814 0.00615278062152398 0.07784587012489814 0.00615278062152398 0.07784587012489814 0.9938472193784761 -0.07784587012489814
2.99E8 0.9911672443952102 -0.09314432487236914 0.0088327556047898 0.09314432487236914 0.0088327556047898 0.09314432487236914 0.9911672443952102 -0.09314432487236914
3.4875E8 0.9880174764164876 -0.10831411093663594 0.011982523583512456 0.10831411093663594 0.011982523583512456 0.10831411093663594 0.9880174764164876 -0.10831411093663594
3.985E8 0.9844060061228289 -0.12333522998633577 0.015593993877171095 0.12333522998633577 0.015593993877171095 0.12333522998633577 0.9844060061228289 -0.12333522998633577
4.4825E8 0.980342025503414 -0.13818831010884994 0.019657974496585982 0.13818831010884994 0.019657974496585982 0.13818831010884994 0.980342025503414 -0.13818831010884994
4.98E8 0.9758357706177835 -0.15285467889602788 0.024164229382216535 0.15285467889602788 0.024164229382216535 0.15285467889602788 0.9758357706177835 -0.15285467889602788
5.4775E8 0.9708984588378865 -0.16731643054190415 0.029101541162113345 0.16731643054190415 0.029101541162113345 0.16731643054190415 0.9708984588378865 -0.16731643054190415
5.975E8 0.9655422212710999 -0.18155648650467024 0.03445777872890018 0.18155648650467024 0.03445777872890018 0.18155648650467024 0.9655422212710999 -0.18155648650467024
6.4725E8 0.9597800311005693 -0.1955586493750884 0.040219968899430726 0.1955586493750884 0.040219968899430726 0.1955586493750884 0.9597800311005693 -0.1955586493750884
6.97E8 0.9536256286025272 -0.2093076496856328 0.04637437139747284 0.2093076496856328 0.04637437139747284 0.2093076496856328 0.9536256286025272 -0.2093076496856328
7.4675E8 0.9470934436111569 -0.22278918548710813 0.0529065563888432 0.22278918548710813 0.0529065563888432 0.22278918548710813 0.9470934436111569 -0.22278918548710813
7.965E8 0.940198516200518 -0.23598995461056463 0.059801483799482066 0.23598995461056463 0.059801483799482066 0.23598995461056463 0.940198516200518 -0.23598995461056463
8.4625E8 0.9329564163405901 -0.24889767962039278 0.06704358365940996 0.24889767962039278 0.06704358365940996 0.24889767962039278 0.9329564163405901 -0.24889767962039278
8.96E8 0.925383163261495 -0.26150112554806304 0.074616836738505 0.26150112554806304 0.074616836738505 0.26150112554806304 0.925383163261495 -0.26150112554806304
9.4575E8 0.9174951452274335 -0.27379011057381997 0.0825048547725665 0.27379011057381997 0.0825048547725665 0.27379011057381997 0.9174951452274335 -0.27379011057381997
9.955E8 0.9093090403809901 -0.28575550989465587 0.09069095961900973 0.28575550989465587 0.09069095961900973 0.28575550989465587 0.9093090403809901 -0.28575550989465587
1.04525E9 0.9008417392704913 -0.29738925308026587 0.09915826072950862 0.29738925308026587 0.09915826072950862 0.29738925308026587 0.9008417392704913 -0.29738925308026587
1.095E9 0.892110269619379 -0.3086843152737728 0.10788973038062094 0.3086843152737728 0.10788973038062094 0.3086843152737728 0.892110269619379 -0.3086843152737728
1.14475E9 0.883131723838453 -0.3196347026404524 0.116868276161547 0.3196347026404524 0.116868276161547 0.3196347026404524 0.883131723838453 -0.3196347026404524
1.1945E9 0.8739231897206644 -0.33023543250528953 0.12607681027933548 0.33023543250528953 0.12607681027933548 0.33023543250528953 0.8739231897206644 -0.33023543250528953
1.24425E9 0.8645016846952336 -0.34048250864899593 0.13549831530476636 0.34048250864899593 0.13549831530476636 0.34048250864899593 0.8645016846952336 -0.34048250864899593
1.294E9 0.854884093954416 -0.35037289225232493 0.145115906045584 0.35037289225232493 0.145115906045584 0.35037289225232493 0.854884093954416 -0.35037289225232493
1.34375E9 0.8450871127033959 -0.3599044689905055 0.15491288729660407 0.3599044689905055 0.15491288729660407 0.3599044689905055 0.8450871127033959 -0.3599044689905055
1.3935E9 0.8351271927225378 -0.3690760127838897 0.16487280727746226 0.3690760127838897 0.16487280727746226 0.3690760127838897 0.8351271927225378 -0.3690760127838897
1.44325E9 0.8250204933724625 -0.3778871467080768 0.17497950662753747 0.3778871467080768 0.17497950662753747 0.3778871467080768 0.8250204933724625 -0.3778871467080768
1.493E9 0.8147828371168743 -0.38633830155755217 0.18521716288312584 0.38633830155755217 0.18521716288312584 0.38633830155755217 0.8147828371168743 -0.38633830155755217
1.54275E9 0.8044296695863479 -0.3944306725419936 0.19557033041365207 0.3944306725419936 0.19557033041365207 0.3944306725419936 0.8044296695863479 -0.3944306725419936
1.5925E9 0.7939760241588633 -0.40216617457466636 0.20602397584113682 0.40216617457466636 0.20602397584113682 0.40216617457466636 0.7939760241588633 -0.40216617457466636
1.64225E9 0.7834364909900562 -0.40954739658851796 0.21656350900994392 0.40954739658851796 0.21656350900994392 0.40954739658851796 0.7834364909900562 -0.40954739658851796
1.692E9 0.772825190388187 -0.4165775552885074 0.22717480961181313 0.4165775552885074 0.22717480961181313 0.4165775552885074 0.772825190388187 -0.4165775552885074
1.74175E9 0.7621557503957475 -0.42326044871910407 0.23784424960425254 0.42326044871910407 0.23784424960425254 0.42326044871910407 0.7621557503957475 -0.42326044871910407
1.7915E9 0.7514412884114693 -0.4296004099945088 0.24855871158853074 0.4296004099945088 0.24855871158853074 0.4296004099945088 0.7514412884114693 -0.4296004099945088
1.84125E9 0.7406943966631294 -0.4356022615066293 0.2593056033368704 0.4356022615066293 0.2593056033368704 0.4356022615066293 0.7406943966631294 -0.4356022615066293
1.891E9 0.7299271313228115 -0.4412712698928254 0.27007286867718855 0.4412712698928254 0.27007286867718855 0.4412712698928254 0.7299271313228115 -0.4412712698928254
1.94075E9 0.7191510050419159 -0.4466131020124477 0.28084899495808413 0.4466131020124477 0.28084899495808413 0.4466131020124477 0.7191510050419159 -0.4466131020124477
1.9905E9 0.7083769826729592 -0.4516337821487144 0.2916230173270408 0.4516337821487144 0.2916230173270408 0.4516337821487144 0.7083769826729592 -0.4516337821487144
2.04025E9 0.6976154799387009 -0.45633965062091875 0.30238452006129907 0.45633965062091875 0.30238452006129907 0.45633965062091875 0.6976154799387009 -0.45633965062091875
2.09E9 0.6868763648060671 -0.46073732396166767 0.313123635193933 0.46073732396166767 0.313123635193933 0.46073732396166767 0.6868763648060671 -0.46073732396166767
2.13975E9 0.6761689613223277 -0.4648336567850978 0.3238310386776722 0.4648336567850978 0.3238310386776722 0.4648336567850978 0.6761689613223277 -0.4648336567850978
2.1895E9 0.6655020556736587 -0.46863570544501826 0.3344979443263413 0.46863570544501826 0.3344979443263413 0.46863570544501826 0.6655020556736587 -0.46863570544501826
2.23925E9 0.6548839042312241 -0.47215069355683414 0.3451160957687759 0.47215069355683414 0.3451160957687759 0.47215069355683414 0.6548839042312241 -0.47215069355683414
2.289E9 0.6443222433568933 -0.47538597943403066 0.3556777566431068 0.47538597943403066 0.3556777566431068 0.47538597943403066 0.6443222433568933 -0.47538597943403066
2.33875E9 0.6338243007493215 -0.4783490254689827 0.3661756992506786 0.4783490254689827 0.3661756992506786 0.4783490254689827 0.6338243007493215 -0.4783490254689827
2.3885E9 0.6233968081210491 -0.48104736946893795 0.37660319187895086 0.48104736946893795 0.37660319187895086 0.48104736946893795 0.6233968081210491 -0.48104736946893795
2.43825E9 0.6130460150082355 -0.48348859794115756 0.3869539849917644 0.48348859794115756 0.3869539849917644 0.48348859794115756 0.6130460150082355 -0.48348859794115756
2.488E9 0.6027777035263444 -0.485680321306365 0.39722229647365564 0.485680321306365 0.39722229647365564 0.485680321306365 0.6027777035263444 -0.485680321306365
2.53775E9 0.5925972038973157 -0.487630151006756 0.4074027961026843 0.487630151006756 0.4074027961026843 0.487630151006756 0.5925972038973157 -0.487630151006756
2.5875E9 0.5825094105862633 -0.48934567846378474 0.4174905894137368 0.48934567846378474 0.4174905894137368 0.48934567846378474 0.5825094105862633 -0.48934567846378474
2.63725E9 0.5725187988983458 -0.4908344558316435 0.4274812011016543 0.4908344558316435 0.4274812011016543 0.4908344558316435 0.5725187988983458 -0.4908344558316435
2.687E9 0.5626294418990012 -0.4921039784846922 0.4373705581009988 0.4921039784846922 0.4373705581009988 0.4921039784846922 0.5626294418990012 -0.4921039784846922
2.73675E9 0.5528450275330692 -0.4931616691709297 0.44715497246693087 0.4931616691709297 0.44715497246693087 0.4931616691709297 0.5528450275330692 -0.4931616691709297
2.7865E9 0.543168875830348 -0.4940148637588223 0.45683112416965205 0.4940148637588223 0.45683112416965205 0.4940148637588223 0.543168875830348 -0.4940148637588223
2.83625E9 0.5336039560967234 -0.4946707985012664 0.46639604390327655 0.4946707985012664 0.46639604390327655 0.4946707985012664 0.5336039560967234 -0.4946707985012664
2.886E9 0.5241529040011176 -0.49513659873805765 0.47584709599888236 0.49513659873805765 0.47584709599888236 0.49513659873805765 0.5241529040011176 -0.49513659873805765
2.93575E9 0.5148180384790528 -0.4954192689568232 0.48518196152094717 0.4954192689568232 0.48518196152094717 0.4954192689568232 0.5148180384790528 -0.4954192689568232
2.9855E9 0.5056013783835923 -0.4955256841318421 0.4943986216164076 0.4955256841318421 0.4943986216164076 0.4955256841318421 0.5056013783835923 -0.4955256841318421
3.03525E9 0.49650465882375305 -0.49546258226041484 0.5034953411762471 0.49546258226041484 0.5034953411762471 0.49546258226041484 0.49650465882375305 -0.49546258226041484
3.085E9 0.4875293471391817 -0.4952365580173327 0.5124706528608183 0.4952365580173327 0.5124706528608183 0.4952365580173327 0.4875293471391817 -0.4952365580173327
3.13475E9 0.4786766584679608 -0.49485405744945543 0.5213233415320391 0.49485405744945543 0.5213233415320391 0.49485405744945543 0.4786766584679608 -0.49485405744945543
3.1845E9 0.46994757087180833 -0.4943213736343249 0.5300524291281917 0.4943213736343249 0.5300524291281917 0.4943213736343249 0.46994757087180833 -0.4943213736343249
3.23425E9 0.46134283998974696 -0.4936446432290535 0.538657160010253 0.4936446432290535 0.538657160010253 0.4936446432290535 0.46134283998974696 -0.4936446432290535
3.284E9 0.4528630131974893 -0.4928298438383418 0.5471369868025109 0.4928298438383418 0.5471369868025109 0.4928298438383418 0.4528630131974893 -0.4928298438383418
3.33375E9 0.4445084432553888 -0.4918827921333373 0.5554915567446113 0.4918827921333373 0.5554915567446113 0.4918827921333373 0.4445084432553888 -0.4918827921333373
3.3835E9 0.4362793014328294 -0.49080914265608544 0.5637206985671707 0.49080914265608544 0.5637206985671707 0.49080914265608544 0.4362793014328294 -0.49080914265608544
3.43325E9 0.42817559010143713 -0.48961438724748507 0.571824409898563 0.48961438724748507 0.571824409898563 0.48961438724748507 0.42817559010143713 -0.48961438724748507
3.483E9 0.42019715479348024 -0.4883038550399031 0.5798028452065196 0.4883038550399031 0.5798028452065196 0.4883038550399031 0.42019715479348024 -0.4883038550399031
3.53275E9 0.4123436957253673 -0.4868827129588833 0.5876563042746328 0.4868827129588833 0.5876563042746328 0.4868827129588833 0.4123436957253673 -0.4868827129588833
3.5825E9 0.4046147787892155 -0.4853559666816592 0.5953852212107846 0.4853559666816592 0.5953852212107846 0.4853559666816592 0.4046147787892155 -0.4853559666816592
3.63225E9 0.39700984601816625 -0.48372846200344155 0.6029901539818338 0.48372846200344155 0.6029901539818338 0.48372846200344155 0.39700984601816625 -0.48372846200344155
3.682E9 0.38952822553340855 -0.4820048865656384 0.6104717744665914 0.4820048865656384 0.6104717744665914 0.4820048865656384 0.38952822553340855 -0.4820048865656384
3.73175E9 0.38216914098284366 -0.48018977190330026 0.6178308590171563 0.48018977190330026 0.6178308590171563 0.48018977190330026 0.38216914098284366 -0.48018977190330026
3.7815E9 0.3749317204829707 -0.47828749577210633 0.6250682795170294 0.47828749577210633 0.6250682795170294 0.47828749577210633 0.3749317204829707 -0.47828749577210633
3.83125E9 0.3678150050769318 -0.4763022847181411 0.6321849949230682 0.4763022847181411 0.6321849949230682 0.4763022847181411 0.3678150050769318 -0.4763022847181411
3.881E9 0.36081795672276545 -0.47423821685651857 0.6391820432772346 0.47423821685651857 0.6391820432772346 0.47423821685651857 0.36081795672276545 -0.47423821685651857
3.93075E9 0.35393946582678965 -0.4720992248276038 0.6460605341732104 0.4720992248276038 0.6460605341732104 0.4720992248276038 0.35393946582678965 -0.4720992248276038
3.9805E9 0.3471783583377068 -0.4698890989021387 0.6528216416622934 0.4698890989021387 0.6528216416622934 0.4698890989021387 0.3471783583377068 -0.4698890989021387
4.03025E9 0.34053340241750446 -0.46761149020901166 0.6594665975824956 0.46761149020901166 0.6594665975824956 0.46761149020901166 0.34053340241750446 -0.46761149020901166
4.08E9 0.33400331470555106 -0.465269914061706 0.6659966852944489 0.465269914061706 0.6659966852944489 0.465269914061706 0.33400331470555106 -0.465269914061706
4.12975E9 0.3275867661924617 -0.46286775336162467 0.6724132338075383 0.46286775336162467 0.6724132338075383 0.46286775336162467 0.3275867661924617 -0.46286775336162467
4.1795E9 0.3212823877203676 -0.46040826205852337 0.6787176122796325 0.46040826205852337 0.6787176122796325 0.46040826205852337 0.3212823877203676 -0.46040826205852337
4.22925E9 0.3150887751261641 -0.4578945686501863 0.6849112248738358 0.4578945686501863 0.6849112248738358 0.4578945686501863 0.3150887751261641 -0.4578945686501863
4.279E9 0.3090044940441714 -0.4553296797052558 0.6909955059558287 0.4553296797052558 0.6909955059558287 0.4553296797052558 0.3090044940441714 -0.4553296797052558
4.32875E9 0.3030280843844068 -0.4527164833947814 0.6969719156155932 0.4527164833947814 0.6969719156155932 0.4527164833947814 0.3030280843844068 -0.4527164833947814
4.3785E9 0.29715806450238286 -0.45005775301959433 0.7028419354976173 0.45005775301959433 0.7028419354976173 0.45005775301959433 0.29715806450238286 -0.45005775301959433
4.42825E9 0.29139293507598846 -0.44735615052203387 0.7086070649240116 0.44735615052203387 0.7086070649240116 0.44735615052203387 0.29139293507598846 -0.44735615052203387
4.478E9 0.28573118270461895 -0.4446142299718702 0.7142688172953812 0.4446142299718702 0.7142688172953812 0.4446142299718702 0.28573118270461895 -0.4446142299718702
4.52775E9 0.28017128324528623 -0.44183444101748326 0.7198287167547137 0.44183444101748326 0.7198287167547137 0.44183444101748326 0.28017128324528623 -0.44183444101748326
4.5775E9 0.2747117048999786 -0.4390191322944708 0.7252882951000215 0.4390191322944708 0.7252882951000215 0.4390191322944708 0.2747117048999786 -0.4390191322944708
4.62725E9 0.2693509110680557 -0.4361705547848854 0.7306490889319441 0.4361705547848854 0.7306490889319441 0.4361705547848854 0.2693509110680557 -0.4361705547848854
4.677E9 0.2640873629769655 -0.4332908651212369 0.7359126370230346 0.4332908651212369 0.7359126370230346 0.4332908651212369 0.2640873629769655 -0.4332908651212369
4.72675E9 0.2589195221040579 -0.43038212883025184 0.7410804778959421 0.43038212883025184 0.7410804778959421 0.43038212883025184 0.2589195221040579 -0.43038212883025184
4.7765E9 0.2538458524017543 -0.42744632351216594 0.7461541475982457 0.42744632351216594 0.7461541475982457 0.42744632351216594 0.2538458524017543 -0.42744632351216594
4.82625E9 0.24886482233781615 -0.42448534195202714 0.751135177662184 0.42448534195202714 0.751135177662184 0.42448534195202714 0.24886482233781615 -0.42448534195202714
4.876E9 0.2439749067619365 -0.42150099516013656 0.7560250932380634 0.42150099516013656 0.7560250932380634 0.42150099516013656 0.2439749067619365 -0.42150099516013656
4.92575E9 0.2391745886093713 -0.4184950153393322 0.7608254113906286 0.4184950153393322 0.7608254113906286 0.4184950153393322 0.2391745886093713 -0.4184950153393322
4.9755E9 0.2344623604518195 -0.4154690587773415 0.7655376395481804 0.4154690587773415 0.7655376395481804 0.4154690587773415 0.2344623604518195 -0.4154690587773415
5.02525E9 0.22983672590527043 -0.4124247086629055 0.7701632740947295 0.4124247086629055 0.7701632740947295 0.4124247086629055 0.22983672590527043 -0.4124247086629055
5.075E9 0.22529620090405145 -0.40936347782479215 0.7747037990959486 0.40936347782479215 0.7747037990959486 0.40936347782479215 0.22529620090405145 -0.40936347782479215
5.12475E9 0.2208393148498385 -0.4062868113931981 0.7791606851501615 0.4062868113931981 0.7791606851501615 0.4062868113931981 0.2208393148498385 -0.4062868113931981
5.1745E9 0.21646461164393918 -0.40319608938337154 0.7835353883560608 0.40319608938337154 0.7835353883560608 0.40319608938337154 0.21646461164393918 -0.40319608938337154
5.22425E9 0.21217065061070914 -0.4000926292015825 0.787829349389291 0.4000926292015825 0.787829349389291 0.4000926292015825 0.21217065061070914 -0.4000926292015825
5.274E9 0.2079560073195435 -0.396977688073836 0.7920439926804566 0.396977688073836 0.7920439926804566 0.396977688073836 0.2079560073195435 -0.396977688073836
5.32375E9 0.20381927431246769 -0.39385246539794555 0.7961807256875322 0.39385246539794555 0.7961807256875322 0.39385246539794555 0.20381927431246769 -0.39385246539794555
5.3735E9 0.19975906174396282 -0.3907181050197916 0.800240938256037 0.3907181050197916 0.800240938256037 0.3907181050197916 0.19975906174396282 -0.3907181050197916
5.42325E9 0.19577399793927505 -0.38757569743475845 0.804226002060725 0.38757569743475845 0.804226002060725 0.38757569743475845 0.19577399793927505 -0.38757569743475845
5.473E9 0.1918627298771037 -0.38442628191549966 0.8081372701228964 0.38442628191549966 0.8081372701228964 0.38442628191549966 0.1918627298771037 -0.38442628191549966
5.52275E9 0.1880239236022095 -0.3812708485673031 0.8119760763977906 0.3812708485673031 0.8119760763977906 0.3812708485673031 0.1880239236022095 -0.3812708485673031
5.5725E9 0.18425626457315677 -0.37811034031243923 0.8157437354268432 0.37811034031243923 0.8157437354268432 0.37811034031243923 0.18425626457315677 -0.37811034031243923
5.62225E9 0.1805584579500897 -0.37494565480496805 0.8194415420499105 0.37494565480496805 0.8194415420499105 0.37494565480496805 0.1805584579500897 -0.37494565480496805
5.672E9 0.1769292288271383 -0.3717776462775476 0.8230707711728616 0.3717776462775476 0.8230707711728616 0.3717776462775476 0.1769292288271383 -0.3717776462775476
5.72175E9 0.17336732241377031 -0.3686071273218554 0.8266326775862298 0.3686071273218554 0.8266326775862298 0.3686071273218554 0.17336732241377031 -0.3686071273218554
5.7715E9 0.1698715041691299 -0.36543487060427177 0.8301284958308701 0.36543487060427177 0.8301284958308701 0.36543487060427177 0.1698715041691299 -0.36543487060427177
5.82125E9 0.16644055989315268 -0.362261610518518 0.8335594401068476 0.362261610518518 0.8335594401068476 0.362261610518518 0.16644055989315268 -0.362261610518518
5.871E9 0.16307329577799906 -0.359088044776957 0.8369267042220009 0.359088044776957 0.8369267042220009 0.359088044776957 0.16307329577799906 -0.359088044776957
