<Qucs Dataset 1.0.7>
<indep frequency 201>
  +1.00000000000000000000e+08
  +1.09500000000000000000e+08
  +1.19000000000000000000e+08
  +1.28500000000000000000e+08
  +1.38000000000000000000e+08
  +1.47500000000000000000e+08
  +1.57000000000000000000e+08
  +1.66500000000000000000e+08
  +1.76000000000000000000e+08
  +1.85500000000000000000e+08
  +1.95000000000000000000e+08
  +2.04500000000000000000e+08
  +2.14000000000000000000e+08
  +2.23500000000000000000e+08
  +2.33000000000000000000e+08
  +2.42500000000000000000e+08
  +2.52000000000000000000e+08
  +2.61500000000000000000e+08
  +2.71000000000000000000e+08
  +2.80500000000000000000e+08
  +2.90000000000000000000e+08
  +2.99500000000000000000e+08
  +3.09000000000000000000e+08
  +3.18500000000000000000e+08
  +3.28000000000000000000e+08
  +3.37500000000000000000e+08
  +3.47000000000000000000e+08
  +3.56500000000000000000e+08
  +3.66000000000000000000e+08
  +3.75500000000000000000e+08
  +3.85000000000000000000e+08
  +3.94500000000000000000e+08
  +4.04000000000000000000e+08
  +4.13500000000000000000e+08
  +4.23000000000000000000e+08
  +4.32500000000000000000e+08
  +4.42000000000000000000e+08
  +4.51500000000000000000e+08
  +4.61000000000000000000e+08
  +4.70500000000000000000e+08
  +4.80000000000000000000e+08
  +4.89500000000000000000e+08
  +4.99000000000000000000e+08
  +5.08500000000000000000e+08
  +5.18000000000000000000e+08
  +5.27500000000000000000e+08
  +5.37000000000000000000e+08
  +5.46500000000000000000e+08
  +5.56000000000000000000e+08
  +5.65500000000000000000e+08
  +5.75000000000000000000e+08
  +5.84500000000000000000e+08
  +5.94000000000000000000e+08
  +6.03500000000000000000e+08
  +6.13000000000000000000e+08
  +6.22500000000000000000e+08
  +6.32000000000000000000e+08
  +6.41500000000000000000e+08
  +6.51000000000000000000e+08
  +6.60500000000000000000e+08
  +6.70000000000000000000e+08
  +6.79500000000000000000e+08
  +6.89000000000000000000e+08
  +6.98500000000000000000e+08
  +7.08000000000000000000e+08
  +7.17500000000000000000e+08
  +7.27000000000000000000e+08
  +7.36500000000000000000e+08
  +7.46000000000000000000e+08
  +7.55500000000000000000e+08
  +7.65000000000000000000e+08
  +7.74500000000000000000e+08
  +7.84000000000000000000e+08
  +7.93500000000000000000e+08
  +8.03000000000000000000e+08
  +8.12500000000000000000e+08
  +8.22000000000000000000e+08
  +8.31500000000000000000e+08
  +8.41000000000000000000e+08
  +8.50500000000000000000e+08
  +8.60000000000000000000e+08
  +8.69500000000000000000e+08
  +8.79000000000000000000e+08
  +8.88500000000000000000e+08
  +8.98000000000000000000e+08
  +9.07500000000000000000e+08
  +9.17000000000000000000e+08
  +9.26500000000000000000e+08
  +9.36000000000000000000e+08
  +9.45500000000000000000e+08
  +9.55000000000000000000e+08
  +9.64500000000000000000e+08
  +9.74000000000000000000e+08
  +9.83500000000000000000e+08
  +9.93000000000000000000e+08
  +1.00250000000000000000e+09
  +1.01200000000000000000e+09
  +1.02150000000000000000e+09
  +1.03100000000000000000e+09
  +1.04050000000000000000e+09
  +1.05000000000000000000e+09
  +1.05950000000000000000e+09
  +1.06900000000000000000e+09
  +1.07850000000000000000e+09
  +1.08800000000000000000e+09
  +1.09750000000000000000e+09
  +1.10700000000000000000e+09
  +1.11650000000000000000e+09
  +1.12600000000000000000e+09
  +1.13550000000000000000e+09
  +1.14500000000000000000e+09
  +1.15450000000000000000e+09
  +1.16400000000000000000e+09
  +1.17350000000000000000e+09
  +1.18300000000000000000e+09
  +1.19250000000000000000e+09
  +1.20200000000000000000e+09
  +1.21150000000000000000e+09
  +1.22100000000000000000e+09
  +1.23050000000000000000e+09
  +1.24000000000000000000e+09
  +1.24950000000000000000e+09
  +1.25900000000000000000e+09
  +1.26850000000000000000e+09
  +1.27800000000000000000e+09
  +1.28750000000000000000e+09
  +1.29700000000000000000e+09
  +1.30650000000000000000e+09
  +1.31600000000000000000e+09
  +1.32550000000000000000e+09
  +1.33500000000000000000e+09
  +1.34450000000000000000e+09
  +1.35400000000000000000e+09
  +1.36350000000000000000e+09
  +1.37300000000000000000e+09
  +1.38250000000000000000e+09
  +1.39200000000000000000e+09
  +1.40150000000000000000e+09
  +1.41100000000000000000e+09
  +1.42050000000000000000e+09
  +1.43000000000000000000e+09
  +1.43950000000000000000e+09
  +1.44900000000000000000e+09
  +1.45850000000000000000e+09
  +1.46800000000000000000e+09
  +1.47750000000000000000e+09
  +1.48700000000000000000e+09
  +1.49650000000000000000e+09
  +1.50600000000000000000e+09
  +1.51550000000000000000e+09
  +1.52500000000000000000e+09
  +1.53450000000000000000e+09
  +1.54400000000000000000e+09
  +1.55350000000000000000e+09
  +1.56300000000000000000e+09
  +1.57250000000000000000e+09
  +1.58200000000000000000e+09
  +1.59150000000000000000e+09
  +1.60100000000000000000e+09
  +1.61050000000000000000e+09
  +1.62000000000000000000e+09
  +1.62950000000000000000e+09
  +1.63900000000000000000e+09
  +1.64850000000000000000e+09
  +1.65800000000000000000e+09
  +1.66750000000000000000e+09
  +1.67700000000000000000e+09
  +1.68650000000000000000e+09
  +1.69600000000000000000e+09
  +1.70550000000000000000e+09
  +1.71500000000000000000e+09
  +1.72450000000000000000e+09
  +1.73400000000000000000e+09
  +1.74350000000000000000e+09
  +1.75300000000000000000e+09
  +1.76250000000000000000e+09
  +1.77200000000000000000e+09
  +1.78150000000000000000e+09
  +1.79100000000000000000e+09
  +1.80050000000000000000e+09
  +1.81000000000000000000e+09
  +1.81950000000000000000e+09
  +1.82900000000000000000e+09
  +1.83850000000000000000e+09
  +1.84800000000000000000e+09
  +1.85750000000000000000e+09
  +1.86700000000000000000e+09
  +1.87650000000000000000e+09
  +1.88600000000000000000e+09
  +1.89550000000000000000e+09
  +1.90500000000000000000e+09
  +1.91450000000000000000e+09
  +1.92400000000000000000e+09
  +1.93350000000000000000e+09
  +1.94300000000000000000e+09
  +1.95250000000000000000e+09
  +1.96200000000000000000e+09
  +1.97150000000000000000e+09
  +1.98100000000000000000e+09
  +1.99050000000000000000e+09
  +2.00000000000000000000e+09
</indep>
<dep dBS11 frequency>
  -7.27288407457969340864e-03
  -9.06831397464952053411e-03
  -1.11141864345845851891e-02
  -1.34264163954230849457e-02
  -1.60233093511623278515e-02
  -1.89261919177515260115e-02
  -2.21601312978558645517e-02
  -2.57548210168378650942e-02
  -2.97457252902067446898e-02
  -3.41755980522821384282e-02
  -3.90965282266704586278e-02
  -4.45727141558880241012e-02
  -5.06842425824198181128e-02
  -5.75322487209739899527e-02
  -6.52459743706404193819e-02
  -7.39924354483918883529e-02
  -8.39896791569876843830e-02
  -9.55249819805759070590e-02
  -1.08979849909475429159e-01
  -1.24864379737200104081e-01
  -1.43864483871935788795e-01
  -1.66906736100541297496e-01
  -1.95247218313909454146e-01
  -2.30592747101651673880e-01
  -2.75265111448872168420e-01
  -3.32421035152590804707e-01
  -4.06341455888781843964e-01
  -5.02801233119152368722e-01
  -6.29520600635415927826e-01
  -7.96676279909267592849e-01
  -1.01740534024303630467e+00
  -1.30816397043967080904e+00
  -1.68871717592552306186e+00
  -2.18148057811257523042e+00
  -2.81000604597193559542e+00
  -3.59670081204673985908e+00
  -4.56037846249291156653e+00
  -5.71469608722418254132e+00
  -7.06853415884222968657e+00
  -8.62881175011402490327e+00
  -1.04055666927626315754e+01
  -1.24191078235304441790e+01
  -1.47102009599041139154e+01
  -1.73572496712881161329e+01
  -2.05120416764405248955e+01
  -2.44888799539810690931e+01
  -3.00015162435792177575e+01
  -3.71276755295669786960e+01
  -3.37873102702781551443e+01
  -2.92742326878708567506e+01
  -2.66478345100461382344e+01
  -2.49991875598051684904e+01
  -2.39132195672304277423e+01
  -2.31894942292379013793e+01
  -2.27184793668248055099e+01
  -2.24345544675936601209e+01
  -2.22957296089057805943e+01
  -2.22738402664999100011e+01
  -2.23493674413598419903e+01
  -2.25085075892873476278e+01
  -2.27414265954005081483e+01
  -2.30411795346740149171e+01
  -2.34030274940542746265e+01
  -2.38240051312266523098e+01
  -2.43026567553831966961e+01
  -2.48388945326685792736e+01
  -2.54339539343638918467e+01
  -2.60904356767371439219e+01
  -2.68124336521652395504e+01
  -2.76057561675490568120e+01
  -2.84782524045904565924e+01
  -2.94402519678621317212e+01
  -3.05050944616854735614e+01
  -3.16896118031026006179e+01
  -3.30140534689317348693e+01
  -3.44997630783050297509e+01
  -3.61592061877287491711e+01
  -3.79620567714579237872e+01
  -3.97388092864988422548e+01
  -4.10162621968054139643e+01
  -4.11550874198472911303e+01
  -4.01479310859254994170e+01
  -3.86304070656337401601e+01
  -3.70801733229950372106e+01
  -3.56692129172434988504e+01
  -3.44281024834395452672e+01
  -3.33437024119858875792e+01
  -3.23936519805154432561e+01
  -3.15565227811958592952e+01
  -3.08141815075573752836e+01
  -3.01518559045297287469e+01
  -2.95576247012793089652e+01
  -2.90218492710894082620e+01
  -2.85366850205290418785e+01
  -2.80956932792947213784e+01
  -2.76935415841756551458e+01
  -2.73257741016769983844e+01
  -2.69886356119874584181e+01
  -2.66789358422034439400e+01
  -2.63939441241357144463e+01
  -2.61313069156285209260e+01
  -2.58889826643727900546e+01
  -2.56651899248682937582e+01
  -2.54583656857398636930e+01
  -2.52671316287501177555e+01
  -2.50902666003112706505e+01
  -2.49266839883320656668e+01
  -2.47754130023961423035e+01
  -2.46355830831984654594e+01
  -2.45064108385858823169e+01
  -2.43871890334508165665e+01
  -2.42772772599935251492e+01
  -2.41760939912401120466e+01
  -2.40831097797652660120e+01
  -2.39978414099711230278e+01
  -2.39198468483097528292e+01
  -2.38487208647260544581e+01
  -2.37840912213051041135e+01
  -2.37256153424666536012e+01
  -2.36729773956461926332e+01
  -2.36258857234482100296e+01
  -2.35840705777929500186e+01
  -2.35472821145943065346e+01
  -2.35152886139833441348e+01
  -2.34878748964095933616e+01
  -2.34648409094883518833e+01
  -2.34460004640820258714e+01
  -2.34311801012340517048e+01
  -2.34202180741752208348e+01
  -2.34129634318113559743e+01
  -2.34092751918674899514e+01
  -2.34090215936120280560e+01
  -2.34120794211814775565e+01
  -2.34183333898674703732e+01
  -2.34276755885841581062e+01
  -2.34400049726054682253e+01
  -2.34552269013942193965e+01
  -2.34732527169469129547e+01
  -2.34939993586171347317e+01
  -2.35173890108715433200e+01
  -2.35433487808168990796e+01
  -2.35718104026874186729e+01
  -2.36027099668284208178e+01
  -2.36359876709253136084e+01
  -2.36715875915569000654e+01
  -2.37094574742254806665e+01
  -2.37495485403852626405e+01
  -2.37918153099584017696e+01
  -2.38362154381395185965e+01
  -2.38827095653262020392e+01
  -2.39312611791384028948e+01
  -2.39818364876477403413e+01
  -2.40344043029352185670e+01
  -2.40889359343024480609e+01
  -2.41454050903974568598e+01
  -2.42037877897134343641e+01
  -2.42640622788774642515e+01
  -2.43262089582799880816e+01
  -2.43902103145675255291e+01
  -2.44560508596538142001e+01
  -2.45237170758814215787e+01
  -2.45931973670135981536e+01
  -2.46644820148142862593e+01
  -2.47375631409433864860e+01
  -2.48124346739810022200e+01
  -2.48890923213986958729e+01
  -2.49675335463237111355e+01
  -2.50477575489462687131e+01
  -2.51297652525089354469e+01
  -2.52135592937790953272e+01
  -2.52991440179285795864e+01
  -2.53865254778455096130e+01
  -2.54757114377928317595e+01
  -2.55667113814923006032e+01
  -2.56595365246498872125e+01
  -2.57541998319393137251e+01
  -2.58507160385769125810e+01
  -2.59491016765821491674e+01
  -2.60493751058091476125e+01
  -2.61515565499735522792e+01
  -2.62556681377732488158e+01
  -2.63617339493954681018e+01
  -2.64697800685862105752e+01
  -2.65798346405625736111e+01
  -2.66919279361176755572e+01
  -2.68060924221918028820e+01
  -2.69223628393530809433e+01
  -2.70407762865615310943e+01
  -2.71613723137351890102e+01
  -2.72841930226108004831e+01
  -2.74092831764803150918e+01
  -2.75366903194575698421e+01
  -2.76664649059836804668e+01
  -2.77986604413427329519e+01
  -2.79333336340697044875e+01
  -2.80705445611805082251e+01
  -2.82103568473255208460e+01
  -2.83528378589877547711e+01
  -2.84980589150219287831e+01
  -2.86460955150305771610e+01
  -2.87970275870332379498e+01
</dep>
<dep dBS21 frequency>
  -7.43318347577223050848e+01
  -7.03397328079188213223e+01
  -6.66638700610761816279e+01
  -6.32540297911591054003e+01
  -6.00707839288063638605e+01
  -5.70825968200815552223e+01
  -5.42638351192703538572e+01
  -5.15933648849040267237e+01
  -4.90535403100504368012e+01
  -4.66294603164417225116e+01
  -4.43084125272889224334e+01
  -4.20794510427904455696e+01
  -3.99330716374591148110e+01
  -3.78609592717015175367e+01
  -3.58557903919159031148e+01
  -3.39110777359925066321e+01
  -3.20210491105818988444e+01
  -3.01805544110187611295e+01
  -2.83849973857628512519e+01
  -2.66302905706489880799e+01
  -2.49128336369641658621e+01
  -2.32295172721000611205e+01
  -2.15777567613207388320e+01
  -1.99555617128298976581e+01
  -1.83616507659538328312e+01
  -1.67956222293027686021e+01
  -1.52581923735016893318e+01
  -1.37515103777589136058e+01
  -1.22795487032514820669e+01
  -1.08485435850614759801e+01
  -9.46741446005870912472e+00
  -8.14801863930717296114e+00
  -6.90500895337112918781e+00
  -5.75500348841908326847e+00
  -4.71484110044818915952e+00
  -3.79898458178116849027e+00
  -3.01662576512296398690e+00
  -2.36947438702917789755e+00
  -1.85116349694118809133e+00
  -1.44854284376373021459e+00
  -1.14427316071359852501e+00
  -9.19692304748622957433e-01
  -7.57103359667850694947e-01
  -6.41135553819381920349e-01
  -5.59258401038478458744e-01
  -5.01722373866159143674e-01
  -4.61202465424308039044e-01
  -4.32342076869109692705e-01
  -4.11309264405217200888e-01
  -3.95415171561203648842e-01
  -3.82807941948476726512e-01
  -3.72237537433027176892e-01
  -3.62880087333980194675e-01
  -3.54209243017375330354e-01
  -3.45903298141155057799e-01
  -3.37778887166499675043e-01
  -3.29744127319429869427e-01
  -3.21765830282317977229e-01
  -3.13846812969007571414e-01
  -3.06010409233592073353e-01
  -2.98290084152324386224e-01
  -2.90722639952955663745e-01
  -2.83343930103400698517e-01
  -2.76186307315692325393e-01
  -2.69277254171139235339e-01
  -2.62638805468271674393e-01
  -2.56287486604804715107e-01
  -2.50234574950618904321e-01
  -2.44486550354639287086e-01
  -2.39045643212688924129e-01
  -2.33910418629299066140e-01
  -2.29076356544915926694e-01
  -2.24536402703622239851e-01
  -2.20281475809337407012e-01
  -2.16300923406969353158e-01
  -2.12582923884300528661e-01
  -2.09114835177400509858e-01
  -2.05883492770044418396e-01
  -2.02875460759473158490e-01
  -2.00077240364875424961e-01
  -1.97475440473601632219e-01
  -1.95056914781594342712e-01
  -1.92808869878028976697e-01
  -1.90718948323252285304e-01
  -1.88775290414355534363e-01
  -1.86966577964188473970e-01
  -1.85282063036420641122e-01
  -1.83711584236085939681e-01
  -1.82245572805325717347e-01
  -1.80875050479458066022e-01
  -1.79591620772240112558e-01
  -1.78387455112157145010e-01
  -1.77255275038624204864e-01
  -1.76188331461285263568e-01
  -1.75180381831527592906e-01
  -1.74225665919041039498e-01
  -1.73318880768990379870e-01
  -1.72455155299668760893e-01
  -1.71630024921275547989e-01
  -1.70839406467278742685e-01
  -1.70079573672001799212e-01
  -1.69347133371464120266e-01
  -1.68639002561243478429e-01
  -1.67952386401654163439e-01
  -1.67284757238613551733e-01
  -1.66633834674294906142e-01
  -1.65997566709190302880e-01
  -1.65374111952487107269e-01
  -1.64761822894767595571e-01
  -1.64159230215970286526e-01
  -1.63565028103936749293e-01
  -1.62978060545512226653e-01
  -1.62397308550641633618e-01
  -1.61821878273016278582e-01
  -1.61250989972505642811e-01
  -1.60683967788559117773e-01
  -1.60120230269165220172e-01
  -1.59559281615322234860e-01
  -1.59000703597729609040e-01
  -1.58444148104418758294e-01
  -1.57889330274697647916e-01
  -1.57336022185092822001e-01
  -1.56784047046207436482e-01
  -1.56233273877709771815e-01
  -1.55683612624892248055e-01
  -1.55135009686911046201e-01
  -1.54587443826221249132e-01
  -1.54040922430375371022e-01
  -1.53495478101184384956e-01
  -1.52951165541640898837e-01
  -1.52408058727100725882e-01
  -1.51866248326419484016e-01
  -1.51325839363659092607e-01
  -1.50786949096316874597e-01
  -1.50249705092186047750e-01
  -1.49714243492495013843e-01
  -1.49180707441309096106e-01
  -1.48649245672682589481e-01
  -1.48120011236899884466e-01
  -1.47593160359634656409e-01
  -1.47068851418048485158e-01
  -1.46547244028258610848e-01
  -1.46028498229068159908e-01
  -1.45512773760821140234e-01
  -1.45000229423276560947e-01
  -1.44491022512833633407e-01
  -1.43985308325217276071e-01
  -1.43483239723984523639e-01
  -1.42984966764116122606e-01
  -1.42490636367668482842e-01
  -1.42000392047860385381e-01
  -1.41514373672677329363e-01
  -1.41032717270835633583e-01
  -1.40555554868828591619e-01
  -1.40083014362533619934e-01
  -1.39615219414537694576e-01
  -1.39152289377784926794e-01
  -1.38694339243333630840e-01
  -1.38241479605677425324e-01
  -1.37793816649334488478e-01
  -1.37351452148776198570e-01
  -1.36914483485809646002e-01
  -1.36483003676641762025e-01
  -1.36057101412274117358e-01
  -1.35636861108660272679e-01
  -1.35222362963437536809e-01
  -1.34813683023326441601e-01
  -1.34410893254909791228e-01
  -1.34014061623442232163e-01
  -1.33623252174095541456e-01
  -1.33238525119201201008e-01
  -1.32859936927300664733e-01
  -1.32487540414726184812e-01
  -1.32121384840822336804e-01
  -1.31761516002634720968e-01
  -1.31407976331463116626e-01
  -1.31060804991208867953e-01
  -1.30720037974657088409e-01
  -1.30385708202624711616e-01
  -1.30057845619887341160e-01
  -1.29736477292670293604e-01
  -1.29421627504534314523e-01
  -1.29113317850795661368e-01
  -1.28811567333272036784e-01
  -1.28516392452117378387e-01
  -1.28227807297036339174e-01
  -1.27945823636313960048e-01
  -1.27670451005677282330e-01
  -1.27401696793609464642e-01
  -1.27139566326108177652e-01
  -1.26884062948779463564e-01
  -1.26635188107488166898e-01
  -1.26392941428057931086e-01
  -1.26157320791145277639e-01
  -1.25928322408280890521e-01
  -1.25705940895091572429e-01
  -1.25490169340950363797e-01
  -1.25280999378269863875e-01
  -1.25078421250271798471e-01
  -1.24882423874738190950e-01
  -1.24692994907602022758e-01
</dep>
<dep S[2,2] frequency>
  +9.16796356218482211276e-01-j3.97254577333136793538e-01
  +8.99844390676201588697e-01-j4.33813548179731778287e-01
  +8.81211335979614873715e-01-j4.70011401071817880304e-01
  +8.60859543068485444373e-01-j5.05800429411557228576e-01
  +8.38747454006743664578e-01-j5.41128453259072994541e-01
  +8.14829351200941687239e-01-j5.75938098778013718437e-01
  +7.89055085847511716857e-01-j6.10165968109701695177e-01
  +7.61369778989929524293e-01-j6.43741673553793303242e-01
  +7.31713490398852361984e-01-j6.76586700991998357679e-01
  +7.00020853231955619833e-01-j7.08613056647309003111e-01
  +6.66220676741957174016e-01-j7.39721637530187492438e-01
  +6.30235526279272706418e-01-j7.69800248179963952921e-01
  +5.91981301208310606299e-01-j7.98721163334811912193e-01
  +5.51366849730203001378e-01-j8.26338106559621365932e-01
  +5.08293688952709876716e-01-j8.52482477143205352732e-01
  +4.62655944867792379149e-01-j8.76958610389750869984e-01
  +4.14340699236330822774e-01-j8.99537799055036502160e-01
  +3.63229042253694622833e-01-j9.19950737130819540255e-01
  +3.09198301221667803951e-01-j9.37877976332058715947e-01
  +2.52126175092398652211e-01-j9.52937923271671705194e-01
  +1.91897892922510554525e-01-j9.64671879557328582067e-01
  +1.28418083973874608272e-01-j9.72525694637471294079e-01
  +6.16298607303775794475e-02-j9.75827870118238238639e-01
  -8.45527148327973772368e-03-j9.73764620205317954493e-01
  -8.17116530560396403526e-02-j9.65353792945645938772e-01
  -1.57831288864177382569e-01-j9.49422233472453247494e-01
  -2.36225579894534132297e-01-j9.24595907334764821606e-01
  -3.15890065375233897171e-01-j8.89319811043102648185e-01
  -3.95230837221113961988e-01-j8.41935858314789231649e-01
  -4.71866723635957330263e-01-j7.80860020123111286949e-01
