! Sonnet Data File
! From: sonnet Version : 18.53-Lite
! From Emgraph Data: 
! Data File Written: 04/08/2024 17:53:51
!< HDATE 04/08/2024 17:52:59
!< MDATE 04/08/2024 17:52:59
# GHZ S MA R 50.00000
0.100000000000000 0.9999139526346 179.77954187448 1.4731907762e-5 87.888364645592 1.4731907762e-5 87.888364645590 0.9999236505653 179.80816527031
0.120000000000000 0.9999096510838 179.73623946684 1.7600253569e-5 88.019390096978 1.7600253569e-5 88.019390096978 0.9999198504058 179.77049396781
0.140000000000000 0.9999053722854 179.69293894070 2.0468573808e-5 88.104334081740 2.0468573808e-5 88.104334081740 0.9999160707474 179.73282430132
0.160000000000000 0.9999011162037 179.64964027455 2.3336845330e-5 88.160168875707 2.3336845330e-5 88.160168875707 0.9999123115503 179.69515625259
0.180000000000000 0.9998968828019 179.60634344689 2.6205061831e-5 88.196435580367 2.6205061831e-5 88.196435580367 0.9999085727745 179.65748980335
0.200000000000000 0.9998926720427 179.56304843620 2.9073225565e-5 88.218909887654 2.9073225565e-5 88.218909887654 0.9999048543791 179.61982493536
0.220000000000000 0.9998884838882 179.51975522100 3.1941343522e-5 88.231292784064 3.1941343522e-5 88.231292784064 0.9999011563228 179.58216163040
0.240000000000000 0.9998843182996 179.47646377982 3.4809425491e-5 88.236065365893 3.4809425491e-5 88.236065365893 0.9998974785638 179.54449987023
0.260000000000000 0.9998801752372 179.43317409119 3.7677483019e-5 88.234953197634 3.7677483019e-5 88.234953197634 0.9998938210595 179.50683963665
0.280000000000000 0.9998760546609 179.38988613365 4.0545528798e-5 88.229193566324 4.0545528798e-5 88.229193566324 0.9998901837668 179.46918091145
0.300000000000000 0.9998719565297 179.34659988577 4.3413576307e-5 88.219696789591 4.3413576307e-5 88.219696789591 0.9998865666420 179.43152367645
0.320000000000000 0.9998678808019 179.30331532612 4.6281639578e-5 88.207147539855 4.6281639578e-5 88.207147539855 0.9998829696410 179.39386791346
0.340000000000000 0.9998638274351 179.26003243328 4.9149733052e-5 88.192070688862 4.9149733052e-5 88.192070688862 0.9998793927189 179.35621360431
0.360000000000000 0.9998597963860 179.21675118584 5.2017871477e-5 88.174875367362 5.2017871477e-5 88.174875367362 0.9998758358302 179.31856073084
0.380000000000000 0.9998557876109 179.17347156240 5.4886069840e-5 88.155885209263 5.4886069840e-5 88.155885209263 0.9998722989290 179.28090927490
0.400000000000000 0.9998518010651 179.13019354159 5.7754343318e-5 88.135359583283 5.7754343318e-5 88.135359583283 0.9998687819687 179.24325921836
0.420000000000000 0.9998478367033 179.08691710203 6.0622707248e-5 88.113508797079 6.0622707248e-5 88.113508797079 0.9998652849022 179.20561054308
0.440000000000000 0.9998438944794 179.04364222237 6.3491177096e-5 88.090505180034 6.3491177096e-5 88.090505180034 0.9998618076817 179.16796323095
0.460000000000000 0.9998399743466 179.00036888126 6.6359768444e-5 88.066491291697 6.6359768444e-5 88.066491291697 0.9998583502590 179.13031726386
0.480000000000000 0.9998360762574 178.95709705735 6.9228496974e-5 88.041586089560 6.9228496974e-5 88.041586089560 0.9998549125851 179.09267262373
0.500000000000000 0.9998322001636 178.91382672934 7.2097378456e-5 88.015889624496 7.2097378456e-5 88.015889624496 0.9998514946107 179.05502929245
0.520000000000000 0.9998283460162 178.87055787591 7.4966428743e-5 87.989486658205 7.4966428743e-5 87.989486658205 0.9998480962856 179.01738725196
0.540000000000000 0.9998245137655 178.82729047576 7.7835663762e-5 87.962449480771 7.7835663762e-5 87.962449480771 0.9998447175593 178.97974648420
0.560000000000000 0.9998207033611 178.78402450760 8.0705099511e-5 87.934840127342 8.0705099511e-5 87.934840127342 0.9998413583805 178.94210697111
0.580000000000000 0.9998169147519 178.74075995016 8.3574752056e-5 87.906712138304 8.3574752056e-5 87.906712138304 0.9998380186976 178.90446869465
0.600000000000000 0.9998131478860 178.69749678219 8.6444637523e-5 87.878111968988 8.6444637523e-5 87.878111968988 0.9998346984581 178.86683163679
0.620000000000000 0.9998094027109 178.65423498242 8.9314772103e-5 87.849080127710 8.9314772103e-5 87.849080127710 0.9998313976092 178.82919577952
0.640000000000000 0.9998056791733 178.61097452963 9.2185172044e-5 87.819652101323 9.2185172044e-5 87.819652101323 0.9998281160973 178.79156110482
0.660000000000000 0.9998019772191 178.56771540259 9.5055853652e-5 87.789859113166 9.5055853652e-5 87.789859113166 0.9998248538685 178.75392759470
0.680000000000000 0.9997982967937 178.52445758008 9.7926833289e-5 87.759728747786 9.7926833289e-5 87.759728747786 0.9998216108680 178.71629523117
0.700000000000000 0.9997946378416 178.48120104092 1.0079812737e-4 87.729285468979 1.0079812737e-4 87.729285468979 0.9998183870406 178.67866399626
0.720000000000000 0.9997910003065 178.43794576391 1.0366975237e-4 87.698551051800 1.0366975237e-4 87.698551051800 0.9998151823306 178.64103387200
0.740000000000000 0.9997873841317 178.39469172787 1.0654172482e-4 87.667544944789 1.0654172482e-4 87.667544944789 0.9998119966817 178.60340484044
0.760000000000000 0.9997837892594 178.35143891166 1.0941406129e-4 87.636284575186 1.0941406129e-4 87.636284575186 0.9998088300368 178.56577688365
0.780000000000000 0.9997802156315 178.30818729411 1.1228677842e-4 87.604785607371 1.1228677842e-4 87.604785607371 0.9998056823385 178.52814998369
0.800000000000000 0.9997766631888 178.26493685410 1.1515989288e-4 87.573062162647 1.1515989288e-4 87.573062162647 0.9998025535287 178.49052412264
0.820000000000000 0.9997731318716 178.22168757050 1.1803342142e-4 87.541127006987 1.1803342142e-4 87.541127006987 0.9997994435488 178.45289928259
0.840000000000000 0.9997696216194 178.17843942221 1.2090738082e-4 87.508991712030 1.2090738082e-4 87.508991712030 0.9997963523395 178.41527544567
0.860000000000000 0.9997661323711 178.13519238812 1.2378178793e-4 87.476666793686 1.2378178793e-4 87.476666793686 0.9997932798412 178.37765259396
0.880000000000000 0.9997626640646 178.09194644715 1.2665665963e-4 87.444161831906 1.2665665963e-4 87.444161831906 0.9997902259933 178.34003070962
0.900000000000000 0.9997592166375 178.04870157824 1.2953201286e-4 87.411485574523 1.2953201286e-4 87.411485574523 0.9997871907350 178.30240977477
0.920000000000000 0.9997557900264 178.00545776032 1.3240786463e-4 87.378646027587 1.3240786463e-4 87.378646027587 0.9997841740048 178.26478977157
0.940000000000000 0.9997523841672 177.96221497236 1.3528423198e-4 87.345650534209 1.3528423198e-4 87.345650534209 0.9997811757407 178.22717068217
0.960000000000000 0.9997489989952 177.91897319331 1.3816113200e-4 87.312505843574 1.3816113200e-4 87.312505843574 0.9997781958799 178.18955248876
0.980000000000000 0.9997456344450 177.87573240217 1.4103858184e-4 87.279218171519 1.4103858184e-4 87.279218171519 0.9997752343594 178.15193517352
1.000000000000000 0.9997422904502 177.83249257793 1.4391659871e-4 87.245793253877 1.4391659871e-4 87.245793253877 0.9997722911153 178.11431871864
1.020000000000000 0.9997389669441 177.78925369960 1.4679519984e-4 87.212236393548 1.4679519984e-4 87.212236393548 0.9997693660833 178.07670310635
1.040000000000000 0.9997356638591 177.74601574620 1.4967440256e-4 87.178552502161 1.4967440256e-4 87.178552502161 0.9997664591986 178.03908831884
1.060000000000000 0.9997323811267 177.70277869676 1.5255422420e-4 87.144746137030 1.5255422420e-4 87.144746137030 0.9997635703955 178.00147433837
1.080000000000000 0.9997291186781 177.65954253034 1.5543468218e-4 87.110821534012 1.5543468218e-4 87.110821534012 0.9997606996082 177.96386114718
1.100000000000000 0.9997258764434 177.61630722601 1.5831579394e-4 87.076782636794 1.5831579394e-4 87.076782636794 0.9997578467700 177.92624872752
1.120000000000000 0.9997226543523 177.57307276283 1.6119757701e-4 87.042633123046 1.6119757701e-4 87.042633123046 0.9997550118137 177.88863706166
1.140000000000000 0.9997194523335 177.52983911990 1.6408004894e-4 87.008376427830 1.6408004894e-4 87.008376427830 0.9997521946716 177.85102613188
1.160000000000000 0.9997162703153 177.48660627632 1.6696322734e-4 86.974015764593 1.6696322734e-4 86.974015764593 0.9997493952755 177.81341592048
1.180000000000000 0.9997131082250 177.44337421122 1.6984712987e-4 86.939554144029 1.6984712987e-4 86.939554144029 0.9997466135564 177.77580640976
1.200000000000000 0.9997099659894 177.40014290371 1.7273177426e-4 86.904994391061 1.7273177426e-4 86.904994391061 0.9997438494449 177.73819758204
1.220000000000000 0.9997068435345 177.35691233296 1.7561717827e-4 86.870339160158 1.7561717827e-4 86.870339160158 0.9997411028711 177.70058941964
1.240000000000000 0.9997037407856 177.31368247811 1.7850335971e-4 86.835590949168 1.7850335971e-4 86.835590949168 0.9997383737644 177.66298190491
1.260000000000000 0.9997006576673 177.27045331835 1.8139033647e-4 86.800752111842 1.8139033647e-4 86.800752111842 0.9997356620536 177.62537502021
1.280000000000000 0.9996975941036 177.22722483285 1.8427812646e-4 86.765824869184 1.8427812646e-4 86.765824869184 0.9997329676672 177.58776874789
1.300000000000000 0.9996945500176 177.18399700083 1.8716674767e-4 86.730811319757 1.8716674767e-4 86.730811319757 0.9997302905328 177.55016307034
1.320000000000000 0.9996915253318 177.14076980150 1.9005621812e-4 86.695713449054 1.9005621812e-4 86.695713449054 0.9997276305778 177.51255796995
1.340000000000000 0.9996885199680 177.09754321408 1.9294655590e-4 86.660533138028 1.9294655590e-4 86.660533138028 0.9997249877286 177.47495342911
1.360000000000000 0.9996855338473 177.05431721783 1.9583777913e-4 86.625272170881 1.9583777913e-4 86.625272170881 0.9997223619114 177.43734943025
1.380000000000000 0.9996825668900 177.01109179200 1.9872990601e-4 86.589932242164 1.9872990601e-4 86.589932242164 0.9997197530518 177.39974595579
1.400000000000000 0.9996796190160 176.96786691586 2.0162295478e-4 86.554514963281 2.0162295478e-4 86.554514963281 0.9997171610746 177.36214298818
1.420000000000000 0.9996766901440 176.92464256871 2.0451694373e-4 86.519021868440 2.0451694373e-4 86.519021868440 0.9997145859042 177.32454050986
1.440000000000000 0.9996737801925 176.88141872983 2.0741189120e-4 86.483454420108 2.0741189120e-4 86.483454420108 0.9997120274646 177.28693850330
1.460000000000000 0.9996708890790 176.83819537856 2.1030781561e-4 86.447814014020 2.1030781561e-4 86.447814014020 0.9997094856790 177.24933695098
1.480000000000000 0.9996680167204 176.79497249422 2.1320473539e-4 86.412101983787 2.1320473539e-4 86.412101983787 0.9997069604700 177.21173583539
1.500000000000000 0.9996651630327 176.75175005616 2.1610266907e-4 86.376319605126 2.1610266907e-4 86.376319605126 0.9997044517600 177.17413513904
1.520000000000000 0.9996623279317 176.70852804373 2.1900163519e-4 86.340468099771 2.1900163519e-4 86.340468099771 0.9997019594704 177.13653484443
1.540000000000000 0.9996595113319 176.66530643631 2.2190165237e-4 86.304548639065 2.2190165237e-4 86.304548639065 0.9996994835223 177.09893493409
1.560000000000000 0.9996567131475 176.62208521329 2.2480273928e-4 86.268562347288 2.2480273928e-4 86.268562347288 0.9996970238363 177.06133539058
1.580000000000000 0.9996539332918 176.57886435408 2.2770491464e-4 86.232510304729 2.2770491464e-4 86.232510304729 0.9996945803321 177.02373619644
1.600000000000000 0.9996511716776 176.53564383809 2.3060819723e-4 86.196393550524 2.3060819723e-4 86.196393550524 0.9996921529293 176.98613733423
1.620000000000000 0.9996484282168 176.49242364475 2.3351260587e-4 86.160213085291 2.3351260587e-4 86.160213085291 0.9996897415467 176.94853878655
1.640000000000000 0.9996457028208 176.44920375352 2.3641815945e-4 86.123969873570 2.3641815945e-4 86.123969873570 0.9996873461024 176.91094053597
1.660000000000000 0.9996429954000 176.40598414386 2.3932487690e-4 86.087664846083 2.3932487690e-4 86.087664846083 0.9996849665142 176.87334256512
1.680000000000000 0.9996403058644 176.36276479525 2.4223277722e-4 86.051298901842 2.4223277722e-4 86.051298901842 0.9996826026993 176.83574485659
1.700000000000000 0.9996376341233 176.31954568718 2.4514187946e-4 86.014872910101 2.4514187946e-4 86.014872910101 0.9996802545743 176.79814739304
1.720000000000000 0.9996349800850 176.27632679916 2.4805220271e-4 85.978387712174 2.4805220271e-4 85.978387712174 0.9996779220551 176.76055015710
1.740000000000000 0.9996323436575 176.23310811072 2.5096376613e-4 85.941844123130 2.5096376613e-4 85.941844123130 0.9996756050574 176.72295313143
1.760000000000000 0.9996297247478 176.18988960139 2.5387658892e-4 85.905242933370 2.5387658892e-4 85.905242933370 0.9996733034960 176.68535629870
1.780000000000000 0.9996271232623 176.14667125073 2.5679069037e-4 85.868584910100 2.5679069037e-4 85.868584910100 0.9996710172853 176.64775964159
1.800000000000000 0.9996245391069 176.10345303830 2.5970608977e-4 85.831870798707 2.5970608977e-4 85.831870798707 0.9996687463391 176.61016314281
1.820000000000000 0.9996219721864 176.06023494370 2.6262280652e-4 85.795101324040 2.6262280652e-4 85.795101324040 0.9996664905708 176.57256678506
1.840000000000000 0.9996194224054 176.01701694653 2.6554086004e-4 85.758277191615 2.6554086004e-4 85.758277191615 0.9996642498930 176.53497055107
1.860000000000000 0.9996168896673 175.97379902639 2.6846026980e-4 85.721399088732 2.6846026980e-4 85.721399088732 0.9996620242179 176.49737442357
1.880000000000000 0.9996143738753 175.93058116292 2.7138105537e-4 85.684467685533 2.7138105537e-4 85.684467685533 0.9996598134572 176.45977838532
1.900000000000000 0.9996118749315 175.88736333577 2.7430323632e-4 85.647483635987 2.7430323632e-4 85.647483635987 0.9996576175219 176.42218241907
1.920000000000000 0.9996093927375 175.84414552461 2.7722683230e-4 85.610447578810 2.7722683230e-4 85.610447578810 0.9996554363225 176.38458650761
1.940000000000000 0.9996069271942 175.80092770910 2.8015186304e-4 85.573360138337 2.8015186304e-4 85.573360138337 0.9996532697690 176.34699063373
1.960000000000000 0.9996044782019 175.75770986894 2.8307834828e-4 85.536221925333 2.8307834828e-4 85.536221925333 0.9996511177709 176.30939478023
1.980000000000000 0.9996020456600 175.71449198385 2.8600630785e-4 85.499033537762 2.8600630785e-4 85.499033537762 0.9996489802369 176.27179892992
2.000000000000000 0.9995996294674 175.67127403355 2.8893576161e-4 85.461795561503 2.8893576161e-4 85.461795561503 0.9996468570755 176.23420306565
2.020000000000000 0.9995972295222 175.62805599777 2.9186672950e-4 85.424508571029 2.9186672950e-4 85.424508571029 0.9996447481943 176.19660717025
2.040000000000000 0.9995948457218 175.58483785628 2.9479923150e-4 85.387173130042 2.9479923150e-4 85.387173130042 0.9996426535007 176.15901122659
2.060000000000000 0.9995924779630 175.54161958886 2.9773328765e-4 85.349789792078 2.9773328765e-4 85.349789792078 0.9996405729012 176.12141521753
2.080000000000000 0.9995901261418 175.49840117528 3.0066891805e-4 85.312359101067 3.0066891805e-4 85.312359101067 0.9996385063021 176.08381912596
2.100000000000000 0.9995877901538 175.45518259536 3.0360614285e-4 85.274881591868 3.0360614285e-4 85.274881591868 0.9996364536088 176.04622293479
2.120000000000000 0.9995854698935 175.41196382891 3.0654498226e-4 85.237357790778 3.0654498226e-4 85.237357790778 0.9996344147265 176.00862662692
2.140000000000000 0.9995831652549 175.36874485577 3.0948545655e-4 85.199788215999 3.0948545655e-4 85.199788215999 0.9996323895596 175.97103018528
2.160000000000000 0.9995808761315 175.32552565581 3.1242758602e-4 85.162173378093 3.1242758602e-4 85.162173378093 0.9996303780120 175.93343359282
2.180000000000000 0.9995786024158 175.28230620887 3.1537139107e-4 85.124513780403 3.1537139107e-4 85.124513780403 0.9996283799872 175.89583683248
2.200000000000000 0.9995763439998 175.23908649487 3.1831689213e-4 85.086809919457 3.1831689213e-4 85.086809919457 0.9996263953880 175.85823988725
2.220000000000000 0.9995741007748 175.19586649368 3.2126410969e-4 85.049062285345 3.2126410969e-4 85.049062285345 0.9996244241166 175.82064274009
2.240000000000000 0.9995718726313 175.15264618525 3.2421306428e-4 85.011271362083 3.2421306428e-4 85.011271362083 0.9996224660749 175.78304537402
2.260000000000000 0.9995696594594 175.10942554949 3.2716377653e-4 84.973437627948 3.2716377653e-4 84.973437627948 0.9996205211641 175.74544777203
2.280000000000000 0.9995674611481 175.06620456636 3.3011626708e-4 84.935561555802 3.3011626708e-4 84.935561555802 0.9996185892848 175.70784991716
2.300000000000000 0.9995652775862 175.02298321583 3.3307055666e-4 84.897643613403 3.3307055666e-4 84.897643613403 0.9996166703372 175.67025179245
2.320000000000000 0.9995631086613 174.97976147789 3.3602666603e-4 84.859684263686 3.3602666603e-4 84.859684263686 0.9996147642208 175.63265338094
2.340000000000000 0.9995609542608 174.93653933254 3.3898461603e-4 84.821683965048 3.3898461603e-4 84.821683965048 0.9996128708346 175.59505466570
2.360000000000000 0.9995588142710 174.89331675978 3.4194442754e-4 84.783643171602 3.4194442754e-4 84.783643171602 0.9996109900773 175.55745562983
2.380000000000000 0.9995566885779 174.85009373967 3.4490612152e-4 84.745562333427 3.4490612152e-4 84.745562333427 0.9996091218466 175.51985625640
2.400000000000000 0.9995545770666 174.80687025225 3.4786971895e-4 84.707441896807 3.4786971895e-4 84.707441896807 0.9996072660401 175.48225652854
2.420000000000000 0.9995524796215 174.76364627759 3.5083524090e-4 84.669282304451 3.5083524090e-4 84.669282304451 0.9996054225546 175.44465642937
2.440000000000000 0.9995503961265 174.72042179577 3.5380270848e-4 84.631083995709 3.5380270848e-4 84.631083995709 0.9996035912864 175.40705594203
2.460000000000000 0.9995483264646 174.67719678690 3.5677214286e-4 84.592847406771 3.5677214286e-4 84.592847406771 0.9996017721313 175.36945504967
2.480000000000000 0.9995462705182 174.63397123110 3.5974356528e-4 84.554572970866 3.5974356528e-4 84.554572970866 0.9995999649846 175.33185373546
2.500000000000000 0.9995442281692 174.59074510850 3.6271699701e-4 84.516261118440 3.6271699701e-4 84.516261118440 0.9995981697409 175.29425198258
2.520000000000000 0.9995421992986 174.54751839926 3.6569245941e-4 84.477912277335 3.6569245941e-4 84.477912277335 0.9995963862945 175.25664977423
2.540000000000000 0.9995401837867 174.50429108354 3.6866997387e-4 84.439526872954 3.6866997387e-4 84.439526872953 0.9995946145389 175.21904709362
2.560000000000000 0.9995381815133 174.46106314154 3.7164956184e-4 84.401105328415 3.7164956184e-4 84.401105328415 0.9995928543672 175.18144392398
2.580000000000000 0.9995361923576 174.41783455346 3.7463124485e-4 84.362648064716 3.7463124485e-4 84.362648064716 0.9995911056720 175.14384024855
2.600000000000000 0.9995342161977 174.37460529952 3.7761504447e-4 84.324155500865 3.7761504447e-4 84.324155500865 0.9995893683452 175.10623605058
2.620000000000000 0.9995322529114 174.33137535997 3.8060098232e-4 84.285628054026 3.8060098232e-4 84.285628054026 0.9995876422785 175.06863131334
2.640000000000000 0.9995303023758 174.28814471505 3.8358908010e-4 84.247066139647 3.8358908010e-4 84.247066139647 0.9995859273626 175.03102602013
2.660000000000000 0.9995283644672 174.24491334504 3.8657935954e-4 84.208470171590 3.8657935954e-4 84.208470171590 0.9995842234880 174.99342015423
2.680000000000000 0.9995264390612 174.20168123024 3.8957184244e-4 84.169840562245 3.8957184244e-4 84.169840562245 0.9995825305445 174.95581369896
2.700000000000000 0.9995245260329 174.15844835096 3.9256655067e-4 84.131177722651 3.9256655067e-4 84.131177722651 0.9995808484215 174.91820663766
2.720000000000000 0.9995226252566 174.11521468751 3.9556350614e-4 84.092482062599 3.9556350614e-4 84.092482062599 0.9995791770077 174.88059895367
2.740000000000000 0.9995207366060 174.07198022025 3.9856273083e-4 84.053753990744 3.9856273083e-4 84.053753990744 0.9995775161914 174.84299063034
2.760000000000000 0.9995188599539 174.02874492954 4.0156424676e-4 84.014993914698 4.0156424676e-4 84.014993914698 0.9995758658603 174.80538165105
