! Sonnet Data File
! From: sonnet Version : 18.53-Lite
! From Emgraph Data: 
! Data File Written: 03/31/2024 16:27:45
!< HDATE 03/31/2024 16:20:50
!< MDATE 03/31/2024 16:20:50
!< PARAMS
!< W0 = 1.1
!< L4 = 10.5
!< W1 = 0.1
!< W2 = 0.27
!< END PARAMS
# GHZ S MA R 50.00000
0.500000000000000 0.0521368001374 -135.8211309727 0.9952224051409 -46.56040560253 0.9952224051410 -46.56040560253 0.0521831396978 -134.3366698041
0.525000000000000 0.0548219171716 -138.3667693454 0.9949975063471 -48.88304483660 0.9949975063471 -48.88304483660 0.0547972128733 -136.7363136263
0.550000000000000 0.0574293836564 -140.8451390446 0.9947458301932 -51.20820807881 0.9947458301932 -51.20820807881 0.0573760731809 -139.1103207369
0.575000000000000 0.0599835261301 -143.2780759696 0.9944718416023 -53.53511340179 0.9944718416023 -53.53511340179 0.0599276533836 -141.4665338692
0.600000000000000 0.0625006089352 -145.6815402699 0.9941795039482 -55.86319708321 0.9941795039482 -55.86319708321 0.0624571077726 -143.8106674521
0.625000000000000 0.0649912663088 -148.0671530404 0.9938725320015 -58.19205211398 0.9938725320015 -58.19205211398 0.0649675662717 -146.1471627797
0.650000000000000 0.0674620828975 -150.4434285328 0.9935545891959 -60.52139674359 0.9935545891959 -60.52139674359 0.0674604516255 -148.4796256295
0.675000000000000 0.0699166350292 -152.8163758216 0.9932290318034 -62.85105057326 0.9932290318034 -62.85105057326 0.0699358653470 -150.8107921202
0.700000000000000 0.0723562530438 -155.1897174068 0.9928983891345 -65.18090831841 0.9928983891345 -65.18090831841 0.0723931421085 -153.1423497705
0.725000000000000 0.0747804795560 -157.5652350551 0.9925640667422 -67.51092505686 0.9925640667422 -67.51092505686 0.0748311746677 -155.4749279370
0.750000000000000 0.0771874277685 -159.9434722383 0.9922266172804 -69.84111196479 0.9922266172804 -69.84111196479 0.0772483834128 -157.8084320826
0.775000000000000 0.0795743709847 -162.3244387967 0.9918863086220 -72.17152124569 0.9918863086220 -72.17152124569 0.0796427355378 -160.1425495781
0.800000000000000 0.0819383824395 -164.7079418257 0.9915434471283 -74.50222091818 0.9915434471283 -74.50222091818 0.0820119911273 -162.4770562994
0.825000000000000 0.0842766859062 -167.0936447506 0.9911983816957 -76.83327753787 0.9911983816957 -76.83327753787 0.0843539381216 -164.8118530562
0.850000000000000 0.0865867290048 -169.4810871553 0.9908514234389 -79.16475129068 0.9908514234389 -79.16475129068 0.0866664752183 -167.1469042765
0.875000000000000 0.0888661498946 -171.8697339063 0.9905028071179 -81.49669695904 0.9905028071179 -81.49669695904 0.0889475967022 -169.4821915019
0.900000000000000 0.0911127361460 -174.2590319169 0.9901526924441 -83.82916565290 0.9901526924441 -83.82916565290 0.0911953536451 -171.8176945454
0.925000000000000 0.0933244009566 -176.6484558052 0.9898011800994 -86.16220558461 0.9898011800994 -86.16220558461 0.0934078257922 -174.1533855013
0.950000000000000 0.0954991726256 -179.0375414094 0.9894483334434 -88.49586180706 0.9894483334434 -88.49586180706 0.0955831127903 -176.4892275981
0.975000000000000 0.0976351842214 178.57408822296 0.9890942086388 -90.83017549088 0.9890942086388 -90.83017549088 0.0977193411351 -178.8251794921
1.000000000000000 0.0997306500113 176.18670377732 0.9887388940587 -93.16518361056 0.9887388940586 -93.16518361056 0.0998146747311 178.83879321253
1.025000000000000 0.1017838242422 173.80046193380 0.9883825504121 -95.50091969626 0.9883825504121 -95.50091969626 0.1018673149045 176.50270210111
1.050000000000000 0.1037929504825 171.41541241284 0.9880254382531 -97.83741564520 0.9880254382531 -97.83741564520 0.1038754829655 174.16652272000
1.075000000000000 0.1057562170145 169.03151767312 0.9876679250579 -100.1747039309 0.9876679250579 -100.1747039309 0.1058373905383 171.83018959532
1.100000000000000 0.1076717282338 166.64867823986 0.9873104744599 -102.5128195096 0.9873104744599 -102.5128195096 0.1077512080404 169.49360012204
1.125000000000000 0.1095374938849 164.26675678947 0.9869536261355 -104.8518010329 0.9869536261355 -104.8518010329 0.1096150401987 167.15662390151
1.150000000000000 0.1113514313270 161.88559707693 0.9865979744924 -107.1916913816 0.9865979744924 -107.1916913816 0.1114269116847 164.81911338051
1.175000000000000 0.1131113747605 159.50503691167 0.9862441507376 -109.5325377252 0.9862441507376 -109.5325377252 0.1131847618589 162.48091302847
1.200000000000000 0.1148150867376 157.12491609009 0.9858928096073 -111.8743913349 0.9858928096073 -111.8743913349 0.1148864459892 160.14186600192
1.225000000000000 0.1164602692734 154.74508065725 0.9855446202134 -114.2173073146 0.9855446202134 -114.2173073146 0.1165297403740 157.80181837083
1.250000000000000 0.1180445733861 152.36538471629 0.9852002598825 -116.5613443505 0.9852002598825 -116.5613443505 0.1181123494459 155.46062145564
1.275000000000000 0.1195656067884 149.98569068657 0.9848604099234 -118.9065645292 0.9848604099234 -118.9065645292 0.1196319135836 153.11813288620
1.300000000000000 0.1210209398846 147.60586863193 0.9845257525373 -121.2530332385 0.9845257525373 -121.2530332385 0.1210860168505 150.77421687477
1.325000000000000 0.1224081103956 145.22579508246 0.9841969683609 -123.6008191513 0.9841969683609 -123.6008191513 0.1224721942298 148.42874403499
1.350000000000000 0.1237246269625 142.84535164203 0.9838747343364 -125.9499942764 0.9838747343364 -125.9499942764 0.1237879381600 146.08159094009
1.375000000000000 0.1249679720418 140.46442358169 0.9835597217287 -128.3006340607 0.9835597217287 -128.3006340607 0.1250307043408 143.73263951704
1.400000000000000 0.1261356043442 138.08289854806 0.9832525941929 -130.6528175223 0.9832525941929 -130.6528175223 0.1261979168747 141.38177631591
1.425000000000000 0.1272249610108 135.70066545750 0.9829540058394 -133.0066273985 0.9829540058394 -133.0066273985 0.1272869728565 139.02889166667
1.450000000000000 0.1282334596636 133.31761360036 0.9826645992747 -135.3621502965 0.9826645992747 -135.3621502965 0.1282952465275 136.67387872935
1.475000000000000 0.1291585004269 130.93363194594 0.9823850036110 -137.7194768372 0.9823850036110 -137.7194768372 0.1292200930965 134.31663244887
1.500000000000000 0.1299974679793 128.54860861970 0.9821158324440 -140.0787017882 0.9821158324440 -140.0787017882 0.1300588522984 131.95704843587
1.525000000000000 0.1307477336722 126.16243051756 0.9818576817927 -142.4399241858 0.9818576817927 -142.4399241858 0.1308088517419 129.59502180519
1.550000000000000 0.1314066577286 123.77498302437 0.9816111279905 -144.8032474458 0.9816111279905 -144.8032474458 0.1314674100759 127.23044600911
1.575000000000000 0.1319715914999 121.38614981589 0.9813767254911 -147.1687794674 0.9813767254910 -147.1687794674 0.1320318399985 124.86321170781
1.600000000000000 0.1324400281457 118.99589001977 0.9811548501147 -149.5366258997 0.9811548501147 -149.5366258997 0.1324995905056 122.49328398308
1.625000000000000 0.1328094153874 116.60414038497 0.9809458980133 -151.9068988801 0.9809458980133 -151.9068988801 0.1328680706672 120.12059762925
1.650000000000000 0.1330770347093 114.21075361515 0.9807504045830 -154.2797228732 0.9807504045830 -154.2797228732 0.1331345351393 117.74499638388
1.675000000000000 0.1332401744979 111.81558685292 0.9805688618840 -156.6552269513 0.9805688618840 -156.6552269513 0.1332962474830 115.36632423474
1.700000000000000 0.1332961334434 109.41850070769 0.9804017174284 -159.0335448514 0.9804017174284 -159.0335448514 0.1333504837929 112.98442374677
1.725000000000000 0.1332422239136 107.01935848083 0.9802493726251 -161.4148150358 0.9802493726251 -161.4148150358 0.1332945362702 110.59913460075
1.750000000000000 0.1330757753956 104.61802557731 0.9801121809076 -163.7991807533 0.9801121809076 -163.7991807533 0.1331257168248 108.21029231341
1.775000000000000 0.1327941380696 102.21436909634 0.9799904455596 -166.1867900965 0.9799904455596 -166.1867900965 0.1328413607732 105.81772711074
1.800000000000000 0.1323946865691 99.808257594725 0.9798844172652 -168.5777960560 0.9798844172652 -168.5777960560 0.1324388306915 103.42126292544
1.825000000000000 0.1318748239824 97.399561018347 0.9797942914116 -170.9723565657 0.9797942914116 -170.9723565657 0.1319155204749 101.02071648981
1.850000000000000 0.1312319861409 94.988150799512 0.9797202051725 -173.3706345404 0.9797202051725 -173.3706345404 0.1312688596524 98.615896495798
1.875000000000000 0.1304636462375 92.573900121346 0.9796622344067 -175.7727979027 0.9796622344067 -175.7727979027 0.1304963179980 96.206602794611
1.900000000000000 0.1295673198137 90.156684354510 0.9796203904005 -178.1790195984 0.9796203904005 -178.1790195984 0.1295954104784 93.792625608135
1.925000000000000 0.1285405701506 87.736381676450 0.9795946164875 179.41052240026 0.9795946164875 179.41052240026 0.1285637025752 91.373744724006
1.950000000000000 0.1273810140989 85.312873889301 0.9795847845780 176.99564510516 0.9795847845780 176.99564510516 0.1273988160179 88.949728644382
1.975000000000000 0.1260863283787 82.886047459819 0.9795906916314 174.57616053630 0.9795906916314 174.57616053630 0.1260984349637 86.520333655743
2.000000000000000 0.1246542563825 80.455794813343 0.9796120561039 172.15187576048 0.9796120561039 172.15187576048 0.1246603126603 84.085302782678
2.025000000000000 0.1230826155117 78.022015924661 0.9796485144084 169.72259294456 0.9796485144084 169.72259294456 0.1230822786281 81.644364582294
2.050000000000000 0.1213693050798 75.584620262317 0.9796996174224 167.28810942370 0.9796996174224 167.28810942370 0.1213622463987 79.197231727187
2.075000000000000 0.1195123148134 73.143529160333 0.9797648270812 164.84821778459 0.9797648270812 164.84821778459 0.1194982218481 76.743599312793
2.100000000000000 0.1175097339870 70.698678714084 0.9798435130986 162.40270596357 0.9798435130986 162.40270596357 0.1174883121637 74.283142808643
2.125000000000000 0.1153597612236 68.250023327006 0.9799349498567 159.95135735931 0.9799349498567 159.95135735931 0.1153307354843 71.815515550802
2.150000000000000 0.1130607149997 65.797540074816 0.9800383135106 157.49395095977 0.9800383135106 157.49395095977 0.1130238312559 69.340345642466
2.175000000000000 0.1106110448917 63.341234108073 0.9801526793565 155.03026148273 0.9801526793565 155.03026148273 0.1105660713448 66.857232088321
2.200000000000000 0.1080093436026 60.881145388031 0.9802770195163 152.56005952904 0.9802770195163 152.56005952904 0.1079560719509 64.365739931027
2.225000000000000 0.1052543598119 58.417357153597 0.9804102009909 150.08311174753 0.9804102009909 150.08311174753 0.1051926063665 61.865394078417
2.250000000000000 0.1023450118934 55.950006661964 0.9805509841452 147.59918101022 0.9805509841452 147.59918101022 0.1022746186267 59.355671397622
2.275000000000000 0.0992804025469 53.479298951817 0.9806980216836 145.10802659625 0.9806980216836 145.10802659625 0.0992012380967 56.835990491556
2.300000000000000 0.0960598343990 51.005524676970 0.9808498581860 142.60940438225 0.9808498581860 142.60940438225 0.0959717950469 54.305698340382
2.325000000000000 0.0926828266300 48.529083498134 0.9810049302720 140.10306703713 0.9810049302720 140.10306703713 0.0925858372663 51.764052647475
2.350000000000000 0.0891491326986 46.050515179589 0.9811615674695 137.58876421798 0.9811615674695 137.58876421798 0.0890431477731 49.210198215286
2.375000000000000 0.0854587592489 43.570541543899 0.9813179938642 135.06624276412 0.9813179938642 135.06624276412 0.0853437636843 46.643134890766
2.400000000000000 0.0816119863116 41.090124007900 0.9814723306127 132.53524688509 0.9814723306127 132.53524688509 0.0814879963268 44.061673393489
2.425000000000000 0.0776093889523 38.610543930582 0.9816225994022 129.99551833818 0.9816225994022 129.99551833818 0.0774764526878 41.464373379131
2.450000000000000 0.0734518605898 36.133517114280 0.9817667269437 127.44679659019 0.9817667269437 127.44679659019 0.0733100583499 38.849454873829
2.475000000000000 0.0691406383272 33.661360740247 0.9819025505889 124.88881895752 0.9819025505889 124.88881895752 0.0689900821183 36.214668777387
2.500000000000000 0.0646773308475 31.197243130055 0.9820278251580 122.32132071760 0.9820278251580 122.32132071760 0.0645181626794 33.557102631236
2.525000000000000 0.0600639498113 28.745568670090 0.9821402310705 119.74403518404 0.9821402310705 119.74403518404 0.0598963378531 30.872880599355
2.550000000000000 0.0553029464219 26.312591769853 0.9822373838669 117.15669373669 0.9822373838669 117.15669373669 0.0551270774427 28.156683903899
2.575000000000000 0.0503972562702 23.907436462033 0.9823168451819 114.55902579733 0.9823168451819 114.55902579733 0.0502133215841 25.400952686377
2.600000000000000 0.0453505597101 21.544386999039 0.9823760069512 111.95076598820 0.9823760069512 111.95076598820 0.0451585368246 22.594607070629
2.625000000000000 0.0401671579670 19.245825430341 0.9824122641879 109.33164501224 0.9824122641879 109.33164501224 0.0399666892711 19.720425853935
2.650000000000000 0.0348519324571 17.048331649458 0.9824231459415 106.70138358581 0.9824231459415 106.70138358581 0.0346423812841 16.749842461827
2.675000000000000 0.0294108452991 15.017546103852 0.9824061935723 104.05970026556 0.9824061935723 104.05970026556 0.0291910847038 13.631884403001
2.700000000000000 0.0238516117806 13.283625361826 0.9823589849259 101.40631079219 0.9823589849259 101.40631079219 0.0236195452899 10.265478064311
2.725000000000000 0.0181856075328 12.145109816029 0.9822791600056 98.740927268194 0.9822791600056 98.740927268194 0.0179369193241 6.4173140592448
2.750000000000000 0.0124351021660 12.466162308296 0.9821644481456 96.063257152505 0.9821644481456 96.063257152505 0.0121591334244 1.4005564661877
2.775000000000000 0.0066786730630 18.134625117880 0.9820126966716 93.373002053857 0.9820126966716 93.373002053857 0.0063376052049 -8.033006172090
2.800000000000000 0.0020767620673 77.766521154135 0.9818219010288 90.669856303288 0.9818219010288 90.669856303287 0.0015359746400 -81.43521302056
2.825000000000000 0.0060901811932 155.21471392002 0.9815901930203 87.953506607370 0.9815901930203 87.953506607370 0.0061436660022 -165.0849903524
2.850000000000000 0.0120771036797 162.35255320276 0.9813158207087 85.223629937591 0.9813158207087 85.223629937591 0.0122157954663 -175.0412987374
2.875000000000000 0.0182498580354 162.91523798275 0.9809972600146 82.479889864932 0.9809972600146 82.479889864932 0.0184181879813 179.78160123635
2.900000000000000 0.0245070816156 161.79508772102 0.9806332489323 79.721935038751 0.9806332489323 79.721935038751 0.0246908631614 175.80728876222
2.925000000000000 0.0308182510870 159.99494948102 0.9802228231175 76.949396395141 0.9802228231175 76.949396395141 0.0310115543094 172.30575585971
2.950000000000000 0.0371639364563 157.84859724888 0.9797653526975 74.161883937688 0.9797653526975 74.161883937688 0.0373635168921 169.03285913650
2.975000000000000 0.0435270892589 155.49841297711 0.9792605800819 71.358983040013 0.9792605800819 71.358983040013 0.0437308123096 165.88376542527
3.000000000000000 0.0498908266501 153.01517113688 0.9787086584870 68.540250215100 0.9787086584870 68.540250215100 0.0500970824256 162.80588933596
3.025000000000000 0.0562376515523 150.43789723106 0.9781101908401 65.705208290368 0.9781101908401 65.705208290368 0.0564450971774 159.76984081038
3.050000000000000 0.0625490970872 147.78976838937 0.9774662686706 62.853340920427 0.9774662686706 62.853340920427 0.0627565292969 156.75780228051
3.075000000000000 0.0688055194116 145.08532017841 0.9767785105319 59.984086361116 0.9767785105319 59.984086361116 0.0690118062653 153.75824489940
3.100000000000000 0.0749859462892 142.33403915773 0.9760490994172 57.096830418767 0.9760490994172 57.096830418767 0.0751899885031 150.76328502406
3.125000000000000 0.0810679447027 139.54229078145 0.9752808185357 54.190898477267 0.9752808185357 54.190898477267 0.0812686530127 147.76725840716
3.150000000000000 0.0870274905158 136.71441645146 0.9744770846979 51.265546492223 0.9744770846979 51.265546492223 0.0872237722533 144.76590261487
3.175000000000000 0.0928388308155 133.85338809104 0.9736419784045 48.319950825933 0.9736419784045 48.319950825933 0.0930295820166 141.75586335681
3.200000000000000 0.0984743326289 130.96121411933 0.9727802695472 45.353196778721 0.9727802695472 45.353196778721 0.0986584335485 138.73438263854
3.225000000000000 0.1039043128668 128.03919937641 0.9718974373767 42.364265650823 0.9718974373767 42.364265650823 0.1040806255796 135.69909356684
3.250000000000000 0.1090968446112 125.08811600337 0.9709996830848 39.352020144170 0.9709996830848 39.352020144170 0.1092642118177 132.64788010915
3.275000000000000 0.1140175346680 122.10831841121 0.9700939329265 36.315187884433 0.9700939329265 36.315187884433 0.1141747790622 129.57877775584
3.300000000000000 0.1186292668300 119.09982245591 0.9691878292781 33.252342810083 0.9691878292781 33.252342810083 0.1187751905067 126.48990079261
3.325000000000000 0.1228919046247 116.06236164613 0.9682897063208 30.161884136500 0.9682897063208 30.161884136500 0.1230252880584 123.37938755021
3.350000000000000 0.1267619465040 112.99542911212 0.9674085461246 27.042012558823 0.9674085461246 27.042012558823 0.1268815466271 120.24535847080
3.375000000000000 0.1301921254894 109.89831188018 0.9665539097026 23.890703307176 0.9665539097026 23.890703307176 0.1302966723498 117.08588414110
3.400000000000000 0.1331309442515 106.77012310535 0.9657358360337 20.705675612046 0.9657358360337 20.705675612046 0.1332191356244 113.89896219126
3.425000000000000 0.1355221355105 103.60983807736 0.9649646999943 17.484358076825 0.9649646999943 17.484358076825 0.1355926286673 110.68250355879
3.450000000000000 0.1373040365830 100.41634108749 0.9642510174441 14.223849390409 0.9642510174441 14.223849390409 0.1373554361424 107.43433043133
3.475000000000000 0.1384088659850 97.188492988053 0.9636051822024 10.920873748650 0.9636051822024 10.920873748650 0.1384397063301 104.15219065134
3.500000000000000 0.1387618894725 93.925234308683 0.9630371150754 7.5717302950724 0.9630371150754 7.5717302950724 0.1387706095146 100.83379715421
3.525000000000000 0.1382804631444 90.625747731488 0.9625557991585 4.1722358482783 0.9625557991585 4.1722358482783 0.1382653700564 97.476907280250
3.550000000000000 0.1368729429304 87.289719754322 0.9621686679703 0.7176601713680 0.9621686679703 0.7176601713680 0.1368321595205 94.079467738810
3.575000000000000 0.1344374541287 83.917770938152 0.9618808031352 -2.797346918221 0.9618808031352 -2.797346918221 0.1343688411218 90.639870981867
3.600000000000000 0.1308605238325 80.512180911307 0.9616938858267 -6.378837163965 0.9616938858267 -6.378837163965 0.1307615621265 87.157407002961
3.625000000000000 0.1260155972696 77.078148938370 0.9616048305057 -10.03365448999 0.9616048305057 -10.03365448999 0.1258832034096 83.633071830599
3.650000000000000 0.1197614950309 73.626076868815 0.9616040102240 -13.76953438270 0.9616040102240 -13.76953438270 0.1195917192264 80.071060027981
3.675000000000000 0.1119409421668 70.175929918566 0.9616729598087 -17.59521090747 0.9616729598087 -17.59521090747 0.1117284463049 76.481653323201
3.700000000000000 0.1023794659092 66.766171565697 0.9617814171798 -21.52052880424 0.9617814171798 -21.52052880424 0.1021165563154 72.887196355238
3.725000000000000 0.0908853829332 63.473870723418 0.9618835359026 -25.55655587214 0.9618835359026 -25.55655587214 0.0905600484302 69.335653468601
3.750000000000000 0.0772529036861 60.466193009538 0.9619130784475 -29.71568746003 0.9619130784475 -29.71568746003 0.0768443177040 65.935627818727
3.775000000000000 0.0612755495820 58.159429146894 0.9617773887737 -34.01172986186 0.9617773887737 -34.01172986186 0.0607417692674 62.965902590782
3.800000000000000 0.0428063241913 57.880014912652 0.9613499615980 -38.45994220574 0.9613499615980 -38.45994220574 0.0420397536061 61.342773310342
3.825000000000000 0.0222115160231 66.661793246986 0.9604615027641 -43.07700642419 0.9604615027641 -43.07700642419 0.0207659523793 66.335498902659
