<Qucs Dataset 1.0.0>
<indep frequency 201>
  +1.00000000000000000000e+08
  +1.24500000000000000000e+08
  +1.49000000000000000000e+08
  +1.73500000000000000000e+08
  +1.98000000000000000000e+08
  +2.22500000000000000000e+08
  +2.47000000000000000000e+08
  +2.71500000000000000000e+08
  +2.96000000000000000000e+08
  +3.20500000000000000000e+08
  +3.45000000000000000000e+08
  +3.69500000000000000000e+08
  +3.94000000000000000000e+08
  +4.18500000000000000000e+08
  +4.43000000000000000000e+08
  +4.67500000000000000000e+08
  +4.92000000000000000000e+08
  +5.16500000000000000000e+08
  +5.41000000000000000000e+08
  +5.65500000000000000000e+08
  +5.90000000000000000000e+08
  +6.14500000000000000000e+08
  +6.39000000000000000000e+08
  +6.63500000000000000000e+08
  +6.88000000000000000000e+08
  +7.12500000000000000000e+08
  +7.37000000000000000000e+08
  +7.61500000000000000000e+08
  +7.86000000000000000000e+08
  +8.10500000000000000000e+08
  +8.35000000000000000000e+08
  +8.59500000000000000000e+08
  +8.84000000000000000000e+08
  +9.08500000000000000000e+08
  +9.33000000000000000000e+08
  +9.57500000000000000000e+08
  +9.82000000000000000000e+08
  +1.00650000000000000000e+09
  +1.03100000000000000000e+09
  +1.05550000000000000000e+09
  +1.08000000000000000000e+09
  +1.10450000000000000000e+09
  +1.12900000000000000000e+09
  +1.15350000000000000000e+09
  +1.17800000000000000000e+09
  +1.20250000000000000000e+09
  +1.22700000000000000000e+09
  +1.25150000000000000000e+09
  +1.27600000000000000000e+09
  +1.30050000000000000000e+09
  +1.32500000000000000000e+09
  +1.34950000000000000000e+09
  +1.37400000000000000000e+09
  +1.39850000000000000000e+09
  +1.42300000000000000000e+09
  +1.44750000000000000000e+09
  +1.47200000000000000000e+09
  +1.49650000000000000000e+09
  +1.52100000000000000000e+09
  +1.54550000000000000000e+09
  +1.57000000000000000000e+09
  +1.59450000000000000000e+09
  +1.61900000000000000000e+09
  +1.64350000000000000000e+09
  +1.66800000000000000000e+09
  +1.69250000000000000000e+09
  +1.71700000000000000000e+09
  +1.74150000000000000000e+09
  +1.76600000000000000000e+09
  +1.79050000000000000000e+09
  +1.81500000000000000000e+09
  +1.83950000000000000000e+09
  +1.86400000000000000000e+09
  +1.88850000000000000000e+09
  +1.91300000000000000000e+09
  +1.93750000000000000000e+09
  +1.96200000000000000000e+09
  +1.98650000000000000000e+09
  +2.01100000000000000000e+09
  +2.03550000000000000000e+09
  +2.06000000000000000000e+09
  +2.08450000000000000000e+09
  +2.10900000000000000000e+09
  +2.13350000000000000000e+09
  +2.15800000000000000000e+09
  +2.18250000000000000000e+09
  +2.20700000000000000000e+09
  +2.23150000000000000000e+09
  +2.25600000000000000000e+09
  +2.28050000000000000000e+09
  +2.30500000000000000000e+09
  +2.32950000000000000000e+09
  +2.35400000000000000000e+09
  +2.37850000000000000000e+09
  +2.40300000000000000000e+09
  +2.42750000000000000000e+09
  +2.45200000000000000000e+09
  +2.47650000000000000000e+09
  +2.50100000000000000000e+09
  +2.52550000000000000000e+09
  +2.55000000000000000000e+09
  +2.57450000000000000000e+09
  +2.59900000000000000000e+09
  +2.62350000000000000000e+09
  +2.64800000000000000000e+09
  +2.67250000000000000000e+09
  +2.69700000000000000000e+09
  +2.72150000000000000000e+09
  +2.74600000000000000000e+09
  +2.77050000000000000000e+09
  +2.79500000000000000000e+09
  +2.81950000000000000000e+09
  +2.84400000000000000000e+09
  +2.86850000000000000000e+09
  +2.89300000000000000000e+09
  +2.91750000000000000000e+09
  +2.94200000000000000000e+09
  +2.96650000000000000000e+09
  +2.99100000000000000000e+09
  +3.01550000000000000000e+09
  +3.04000000000000000000e+09
  +3.06450000000000000000e+09
  +3.08900000000000000000e+09
  +3.11350000000000000000e+09
  +3.13800000000000000000e+09
  +3.16250000000000000000e+09
  +3.18700000000000000000e+09
  +3.21150000000000000000e+09
  +3.23600000000000000000e+09
  +3.26050000000000000000e+09
  +3.28500000000000000000e+09
  +3.30950000000000000000e+09
  +3.33400000000000000000e+09
  +3.35850000000000000000e+09
  +3.38300000000000000000e+09
  +3.40750000000000000000e+09
  +3.43200000000000000000e+09
  +3.45650000000000000000e+09
  +3.48100000000000000000e+09
  +3.50550000000000000000e+09
  +3.53000000000000000000e+09
  +3.55450000000000000000e+09
  +3.57900000000000000000e+09
  +3.60350000000000000000e+09
  +3.62800000000000000000e+09
  +3.65250000000000000000e+09
  +3.67700000000000000000e+09
  +3.70150000000000000000e+09
  +3.72600000000000000000e+09
  +3.75050000000000000000e+09
  +3.77500000000000000000e+09
  +3.79950000000000000000e+09
  +3.82400000000000000000e+09
  +3.84850000000000000000e+09
  +3.87300000000000000000e+09
  +3.89750000000000000000e+09
  +3.92200000000000000000e+09
  +3.94650000000000000000e+09
  +3.97100000000000000000e+09
  +3.99550000000000000000e+09
  +4.02000000000000000000e+09
  +4.04450000000000000000e+09
  +4.06900000000000000000e+09
  +4.09350000000000000000e+09
  +4.11800000000000000000e+09
  +4.14250000000000000000e+09
  +4.16700000000000000000e+09
  +4.19150000000000000000e+09
  +4.21600000000000000000e+09
  +4.24050000000000000000e+09
  +4.26500000000000000000e+09
  +4.28950000000000000000e+09
  +4.31400000000000000000e+09
  +4.33850000000000000000e+09
  +4.36300000000000000000e+09
  +4.38750000000000000000e+09
  +4.41200000000000000000e+09
  +4.43650000000000000000e+09
  +4.46100000000000000000e+09
  +4.48550000000000000000e+09
  +4.51000000000000000000e+09
  +4.53450000000000000000e+09
  +4.55900000000000000000e+09
  +4.58350000000000000000e+09
  +4.60800000000000000000e+09
  +4.63250000000000000000e+09
  +4.65700000000000000000e+09
  +4.68150000000000000000e+09
  +4.70600000000000000000e+09
  +4.73050000000000000000e+09
  +4.75500000000000000000e+09
  +4.77950000000000000000e+09
  +4.80400000000000000000e+09
  +4.82850000000000000000e+09
  +4.85300000000000000000e+09
  +4.87750000000000000000e+09
  +4.90200000000000000000e+09
  +4.92650000000000000000e+09
  +4.95100000000000000000e+09
  +4.97550000000000000000e+09
  +5.00000000000000000000e+09
</indep>
<dep S11_dB frequency>
  -9.98054632010370127446e-05
  -1.52550070070196845369e-04
  -2.14777129720284732685e-04
  -2.85330277075019104419e-04
  -3.62883366842205905885e-04
  -4.45958737255334190016e-04
  -5.32948099111406900855e-04
  -6.22135974852456793971e-04
  -7.11725594326448806823e-04
  -7.99867132355647388053e-04
  -8.84688147527075961253e-04
  -9.64326051397235367926e-04
  -1.03696240132963315127e-03
  -1.10085876802806402128e-03
  -1.15439387918653312351e-03
  -1.19610168274741478917e-03
  -1.22470990581695794025e-03
  -1.23917860702407256826e-03
  -1.23873812992179302070e-03
  -1.22292576158642362326e-03
  -1.19162028241908703706e-03
  -1.14507345937570081430e-03
  -1.08393738439023891787e-03
  -1.00928639201556657329e-03
  -9.22632105377266752665e-04
  -8.25929958527121268162e-04
  -7.21575328400100098232e-04
  -6.12387185515336318446e-04
  -5.01576946556865437520e-04
  -3.92699995617755816604e-04
  -2.89587151718908707848e-04
  -1.96253223591826659808e-04
  -1.16779746016091622095e-04
  -5.51690881019932638485e-05
  -1.51674382688278952395e-05
  -5.48099921380740299720e-08
  -1.24013264972343190048e-05
  -5.37908433725862165139e-05
  -1.24515752056647598447e-04
  -2.23250993949608415347e-04
  -3.46721494775223155072e-04
  -4.89386238349891330643e-04
  -6.43175225354492832372e-04
  -7.97334298391978030240e-04
  -9.38459682203989040833e-04
  -1.05084257122942852439e-03
  -1.11729922940251194356e-03
  -1.12074115575409665423e-03
  -1.04685356774600248769e-03
  -8.88414357164480196841e-04
  -6.52022681186324292585e-04
  -3.68350150974838786398e-04
  -1.07527717624543938356e-04
  -2.01045347338208529143e-06
  -2.80326064020521860919e-04
  -1.31666217020647902981e-03
  -3.70349187896365332484e-03
  -8.35765233444629024318e-03
  -1.66747994644992278412e-02
  -3.07532422813826672447e-02
  -5.37157736663534807198e-02
  -9.01662333681152727838e-02
  -1.46822672532586823158e-01
  -2.33362376735734677879e-01
  -3.63477340578780894198e-01
  -5.56040888615236705839e-01
  -8.36090793138509313920e-01
  -1.23504358155015259157e+00
  -1.78931284098508025515e+00
  -2.53670124892864290445e+00
  -3.51103449855675942004e+00
  -4.73731108957573443519e+00
  -6.23071105334730113157e+00
  -8.00167870599273811649e+00
  -1.00669340725429474759e+01
  -1.24658443294599621254e+01
  -1.52857639650375034535e+01
  -1.87120361031042854449e+01
  -2.31500245282296077676e+01
  -2.94114453177335342104e+01
  -3.34084595363093583842e+01
  -2.83397149116847231198e+01
  -2.47999265898126566299e+01
  -2.26377533308628713371e+01
  -2.12230693667900460753e+01
  -2.02601407652364358114e+01
  -1.95963856629100732221e+01
  -1.91444308704412655686e+01
  -1.88501551055391090017e+01
  -1.86780239313955078728e+01
  -1.86036653691326421267e+01
  -1.86098050190226906864e+01
  -1.86838978887238233995e+01
  -1.88166786898678779494e+01
  -1.90012387697149414123e+01
  -1.92324201462183204114e+01
  -1.95064089030592242580e+01
  -1.98204590733447290063e+01
  -2.01727054879684501998e+01
  -2.05620401053693591109e+01
  -2.09880362312784214396e+01
  -2.14509115291775032119e+01
  -2.19515253780137058470e+01
  -2.24914099332943173692e+01
  -2.30728379157066072480e+01
  -2.36989343732233770368e+01
  -2.43738452830570260232e+01
  -2.51029841478145172573e+01
  -2.58933908408773305609e+01
  -2.67542587641898812478e+01
  -2.76977243533779216023e+01
  -2.87400820797261502548e+01
  -2.99037199644040754265e+01
  -3.12203354173109417502e+01
  -3.27365525090422124777e+01
  -3.45243117196355910892e+01
  -3.67012127192050670033e+01
  -3.94708245790919249885e+01
  -4.31721050147547629194e+01
  -4.76852053167617100371e+01
  -4.76332495380028007048e+01
  -4.33250333686427211433e+01
  -3.98889341838100079940e+01
  -3.73673735894831651194e+01
  -3.54260636622571141174e+01
  -3.38658346054981933548e+01
  -3.25712237798685393386e+01
  -3.14712306309085505518e+01
  -3.05195552025743843672e+01
  -2.96844809908739684090e+01
  -2.89433879248099898973e+01
  -2.82796002192608106895e+01
  -2.76804813513664882407e+01
  -2.71362315461131764494e+01
  -2.66390999183295562602e+01
  -2.61828515006259401332e+01
  -2.57623965675012840393e+01
  -2.53735265268908278813e+01
  -2.50127217007498217072e+01
  -2.46770087712124563950e+01
  -2.43638532738503528208e+01
  -2.40710772954053631167e+01
  -2.37967956089723209345e+01
  -2.35393655056355015631e+01
  -2.32973469438044880064e+01
  -2.30694705706264677758e+01
  -2.28546118199692287476e+01
  -2.26517697515043501255e+01
  -2.24600496256171808795e+01
  -2.22786484490150904492e+01
  -2.21068429026906372314e+01
  -2.19439791955135099499e+01
  -2.17894644857463681831e+01
  -2.16427595880089214120e+01
  -2.15033727408928498903e+01
  -2.13708542550281386241e+01
  -2.12447918961691684103e+01
  -2.11248068851703507676e+01
  -2.10105504183197879797e+01
  -2.09017006286956963379e+01
  -2.07979599229920850689e+01
  -2.06990526393697109597e+01
  -2.06047229808958007879e+01
  -2.05147331864778870170e+01
  -2.04288619072135730903e+01
  -2.03469027610296251396e+01
  -2.02686630425821405765e+01
  -2.01939625687919210861e+01
  -2.01226326432299096325e+01
  -2.00545151249470876564e+01
  -1.99894615893429836717e+01
  -1.99273325703571515533e+01
  -1.98679968746982673622e+01
  -1.98113309600411895417e+01
  -1.97572183701607215767e+01
  -1.97055492208569944523e+01
  -1.96562197312895001744e+01
  -1.96091317959915976132e+01
  -1.95641925934034546231e+01
  -1.95213142272498387797e+01
  -1.94804133975147877322e+01
  -1.94414110981334857797e+01
  -1.94042323388446611432e+01
  -1.93688058889271097485e+01
  -1.93350640407917495622e+01
  -1.93029423916157654162e+01
  -1.92723796413966539376e+01
  -1.92433174059714247051e+01
  -1.92157000436945430977e+01
  -1.91894744945993380725e+01
  -1.91645901309840773763e+01
  -1.91409986184669946851e+01
  -1.91186537866467745062e+01
  -1.90975115085868907272e+01
  -1.90775295884150217773e+01
  -1.90586676563950234708e+01
  -1.90408870708864057519e+01
  -1.90241508266601080379e+01
  -1.90084234690854287919e+01
  -1.89936710137464856984e+01
  -1.89798608710839644687e+01
</dep>
<dep S21_dB frequency>
  -4.63863498699989662555e+01
  -4.45437952731819564178e+01
  -4.30580701594036838742e+01
  -4.18245071961035463914e+01
  -4.07803539304936535359e+01
  -3.98851193197388766976e+01
  -3.91112604090114714950e+01
  -3.84393010269321706573e+01
  -3.78550731334542547302e+01
  -3.73480645264797885829e+01
  -3.69103833603987823153e+01
  -3.65360862726781903120e+01
  -3.62207314856785558277e+01
  -3.59610774727400510642e+01
  -3.57548801433549456874e+01
  -3.56007601363845154196e+01
  -3.54981231479697285636e+01
  -3.54471236153050881512e+01
  -3.54486674080334580594e+01
  -3.55044536241418668965e+01
  -3.56170600427425512180e+01
  -3.57900821504982360466e+01
  -3.60283431192400627197e+01
  -3.63382035684637969553e+01
  -3.67280187915132643184e+01
  -3.72088238780841322750e+01
  -3.77953871387401818538e+01
  -3.85078883599062820053e+01
  -3.93747182263631856358e+01
  -4.04374304972850779905e+01
  -4.17601950122092873130e+01
  -4.34497732486969567844e+01
  -4.57042262390136428962e+01
  -4.89609126425646934422e+01
  -5.45687283358608965500e+01
  -7.89892459268762223701e+01
  -5.54431678982538755918e+01
  -4.90707864731678569115e+01
  -4.54256624107857618355e+01
  -4.28900207269067692550e+01
  -4.09782088096313472647e+01
  -3.94815702765197400481e+01
  -3.82948716231212102912e+01
  -3.73618373115762310022e+01
  -3.66541561409890448431e+01
  -3.61629919397036374562e+01
  -3.58967067583022085842e+01
  -3.58833502680476073010e+01
  -3.61795071543972497352e+01
  -3.68921316293859149482e+01
  -3.82355420871335667243e+01
  -4.07154187648727514670e+01
  -4.60626926007116139772e+01
  -6.33449038422942223292e+01
  -4.19013484826661368743e+01
  -3.51837578497155476498e+01
  -3.06935807606983281914e+01
  -2.71611782570514428414e+01
  -2.41655716482991458349e+01
  -2.15143015631407337196e+01
  -1.91036549647908984184e+01
  -1.68724089533520462680e+01
  -1.47831163817996991128e+01
  -1.28136934450718591449e+01
  -1.09535409063998514512e+01
  -9.20183035590096487510e+00
  -7.56664943098888542750e+00
  -6.06391772250701244218e+00
  -4.71496320809981028788e+00
  -3.54193843319401358016e+00
  -2.56137694268549509502e+00
  -1.77796307790421037609e+00
  -1.18155009906190877622e+00
  -7.49087581040442485047e-01
  -4.50201067621557815546e-01
  -2.53400999976358509702e-01
  -1.30532358709802787100e-01
  -5.88190947802268715439e-02
  -2.10782886073850560249e-02
  -4.97609382516752980080e-03
  -1.98169785270581278944e-03
  -6.36988035691871210681e-03
  -1.44049481915980576163e-02
  -2.37243682548080730976e-02
  -3.28943306082826875114e-02
  -4.10982687448753769566e-02
  -4.79225222585513074836e-02
  -5.32107087022019031863e-02
  -5.69657705021826069047e-02
  -5.92847212507432649864e-02
  -6.03156575743657719091e-02
  -6.02298555768007448652e-02
  -5.92040424995052896873e-02
  -5.74094987741333717679e-02
  -5.50057153783659186219e-02
  -5.21370604845301788277e-02
  -4.89314059089382275003e-02
  -4.55000022213007046523e-02
  -4.19381222370563827573e-02
  -3.83261503540427428405e-02
  -3.47309030784968830741e-02
  -3.12070398858098618788e-02
  -2.77984739920672033198e-02
  -2.45397269770705021841e-02
  -2.14571944912311726728e-02
  -1.85703059293590051759e-02
  -1.58925713265448166622e-02
  -1.34325154629753168445e-02
  -1.11945033889667075466e-02
  -9.17946409050570191757e-03
  -7.38552035882708221570e-03
  -5.80853348920195786120e-03
  -4.44257148269390934187e-03
  -3.28030914502882046599e-03
  -2.31336799902088618291e-03
  -1.53260333848953284736e-03
  -9.28345113578497426604e-04
  -4.90598688735951701280e-04
  -2.09210881965735616926e-04
  -7.40060934782898831828e-05
  -7.48967723494230739386e-05
  -2.01971956730966078911e-04
  -4.45567156821516179542e-04
  -7.96318430931440774181e-04
  -1.24520313020354158988e-03
  -1.78356945523675371537e-03
  -2.40315667408307672565e-03
  -3.09610759249679540206e-03
  -3.85497464118313582643e-03
  -4.67272074681268807794e-03
  -5.54271598141604752985e-03
  -6.45873083531737189611e-03
  -7.41492682930339035152e-03
  -8.40584506976113296495e-03
  -9.42639325421059867671e-03
  -1.04718315517958494854e-02
  -1.15377577120253007464e-02
  -1.26200916944118560897e-02
  -1.37150600595297832845e-02
  -1.48191803177344059994e-02
  -1.59292453944143257150e-02
  -1.70423083384069751212e-02
  -1.81556673737255924728e-02
  -1.92668513717337043512e-02
  -2.03736058021208449320e-02
  -2.14738792051637032710e-02
  -2.25658102144023070545e-02
  -2.36477151481495825869e-02
  -2.47180761791362564594e-02
  -2.57755300843916061726e-02
  -2.68188575715399141197e-02
  -2.78469731728119736236e-02
  -2.88589156946570564444e-02
  -2.98538392076347566806e-02
  -3.08310045593122653007e-02
  -3.17897713912000806635e-02
  -3.27295906396840169394e-02
  -3.36499975002149953607e-02
  -3.45506048336693405432e-02
  -3.54310969936583938789e-02
  -3.62912240536815630665e-02
  -3.71307964134290208191e-02
  -3.79496797638159341637e-02
  -3.87477903909408671890e-02
  -3.95250907998645623076e-02
  -4.02815856396363108916e-02
  -4.10173179118525285669e-02
  -4.17323654456641379706e-02
  -4.24268376230883953459e-02
  -4.31008723389926656777e-02
  -4.37546331811611982632e-02
  -4.43883068163860097788e-02
  -4.50021005694090717175e-02
  -4.55962401821962126647e-02
  -4.61709677417225169971e-02
  -4.67265397651254882350e-02
  -4.72632254317685920886e-02
  -4.77813049523327787460e-02
  -4.82810680656594534699e-02
  -4.87628126545870954622e-02
  -4.92268434727433229492e-02
  -4.96734709744042490787e-02
  -5.01030102405336658089e-02
  -5.05157799939575796744e-02
  -5.09121016976509313534e-02
  -5.12922987300822308399e-02
  -5.16566956321801162844e-02
  -5.20056174207938065601e-02
  -5.23393889637778150781e-02
  -5.26583344123017493832e-02
  -5.29627766861617832461e-02
  -5.32530370081522042014e-02
  -5.35294344839605806818e-02
  -5.37922857240795554423e-02
  -5.40419045046704044077e-02
  -5.42786014643933251156e-02
  -5.45026838344256081559e-02
  -5.47144551992238409310e-02
  -5.49142152855194715100e-02
  -5.51022597774630876200e-02
  -5.52788801557802522701e-02
</dep>
<dep S[2,2] frequency>
  +9.95296110474959583314e-01-j9.67608995426510881677e-02
  +9.92704943552656815520e-01-j1.20423293889917015775e-01
  +9.89544448507086560340e-01-j1.44056695054158745428e-01
  +9.85812368535570970884e-01-j1.67655230983735192840e-01
  +9.81506016214563903333e-01-j1.91212935342526507698e-01
  +9.76622260693233434914e-01-j2.14723728070266739465e-01
  +9.71157513067784416982e-01-j2.38181394123135548035e-01
  +9.65107709991794293636e-01-j2.61579560119547360753e-01
  +9.58468295586206164849e-01-j2.84911668608763435362e-01
  +9.51234201721283145758e-01-j3.08170949671666360992e-01
  +9.43399826751852743634e-01-j3.31350389553696778044e-01
  +9.34959012796454325134e-01-j3.54442696019557801357e-01
  +9.25905021660546223572e-01-j3.77440260107745062523e-01
  +9.16230509513559221446e-01-j4.00335113950201715305e-01
  +9.05927500439193233994e-01-j4.23118884308318066179e-01
  +8.94987358987658021547e-01-j4.45782741460931275501e-01
  +8.83400761867257688920e-01-j4.68317343062734370296e-01
  +8.71157668920357841635e-01-j4.90712772572282796002e-01
  +8.58247293534755373301e-01-j5.12958471827172024504e-01
  +8.44658072645058322081e-01-j5.35043167319392498626e-01
  +8.30377636478868086378e-01-j5.56954789695565999352e-01
  +8.15392778198121837008e-01-j5.78680385973607824823e-01
  +7.99689423575358104834e-01-j6.00206023927912002414e-01
  +7.83252600825983247290e-01-j6.21516688047305310150e-01
  +7.66066410688515109229e-01-j6.42596166411071534341e-01
  +7.48113996802463376845e-01-j6.63426927754506623458e-01
  +7.29377516374522749665e-01-j6.83989987901742368948e-01
  +7.09838111044237440872e-01-j7.04264764623197869753e-01
  +6.89475877755521660006e-01-j7.24228919819020933168e-01
  +6.68269839305214330416e-01-j7.43858187726251451899e-01
