<Qucs Dataset 1.0.0>
<indep W_C1 1>
  +5.70000000000000020539e-03
</indep>
<indep L_C1 1>
  +1.65000000000000007772e-02
</indep>
<indep L_L1 1>
  +5.70000000000000020539e-03
</indep>
<indep W_C2 1>
  +3.70000000000000016376e-03
</indep>
<indep L_C2 1>
  +7.40000000000000032752e-03
</indep>
<indep L_L2 1>
  +9.59999999999999915901e-03
</indep>
<indep frequency 201>
  +1.00000000000000000000e+08
  +1.19500000000000000000e+08
  +1.39000000000000000000e+08
  +1.58500000000000000000e+08
  +1.78000000000000000000e+08
  +1.97500000000000000000e+08
  +2.17000000000000000000e+08
  +2.36500000000000000000e+08
  +2.56000000000000000000e+08
  +2.75500000000000000000e+08
  +2.95000000000000000000e+08
  +3.14500000000000000000e+08
  +3.34000000000000000000e+08
  +3.53500000000000000000e+08
  +3.73000000000000000000e+08
  +3.92500000000000000000e+08
  +4.12000000000000000000e+08
  +4.31500000000000000000e+08
  +4.51000000000000000000e+08
  +4.70500000000000000000e+08
  +4.90000000000000000000e+08
  +5.09500000000000000000e+08
  +5.29000000000000000000e+08
  +5.48500000000000000000e+08
  +5.68000000000000000000e+08
  +5.87500000000000000000e+08
  +6.07000000000000000000e+08
  +6.26500000000000000000e+08
  +6.46000000000000000000e+08
  +6.65500000000000000000e+08
  +6.85000000000000000000e+08
  +7.04500000000000000000e+08
  +7.24000000000000000000e+08
  +7.43500000000000000000e+08
  +7.63000000000000000000e+08
  +7.82500000000000000000e+08
  +8.02000000000000000000e+08
  +8.21500000000000000000e+08
  +8.41000000000000000000e+08
  +8.60500000000000000000e+08
  +8.80000000000000000000e+08
  +8.99500000000000000000e+08
  +9.19000000000000000000e+08
  +9.38500000000000000000e+08
  +9.58000000000000000000e+08
  +9.77500000000000000000e+08
  +9.97000000000000000000e+08
  +1.01650000000000000000e+09
  +1.03600000000000000000e+09
  +1.05550000000000000000e+09
  +1.07500000000000000000e+09
  +1.09450000000000000000e+09
  +1.11400000000000000000e+09
  +1.13350000000000000000e+09
  +1.15300000000000000000e+09
  +1.17250000000000000000e+09
  +1.19200000000000000000e+09
  +1.21150000000000000000e+09
  +1.23100000000000000000e+09
  +1.25050000000000000000e+09
  +1.27000000000000000000e+09
  +1.28950000000000000000e+09
  +1.30900000000000000000e+09
  +1.32850000000000000000e+09
  +1.34800000000000000000e+09
  +1.36750000000000000000e+09
  +1.38700000000000000000e+09
  +1.40650000000000000000e+09
  +1.42600000000000000000e+09
  +1.44550000000000000000e+09
  +1.46500000000000000000e+09
  +1.48450000000000000000e+09
  +1.50400000000000000000e+09
  +1.52350000000000000000e+09
  +1.54300000000000000000e+09
  +1.56250000000000000000e+09
  +1.58200000000000000000e+09
  +1.60150000000000000000e+09
  +1.62100000000000000000e+09
  +1.64050000000000000000e+09
  +1.66000000000000000000e+09
  +1.67950000000000000000e+09
  +1.69900000000000000000e+09
  +1.71850000000000000000e+09
  +1.73800000000000000000e+09
  +1.75750000000000000000e+09
  +1.77700000000000000000e+09
  +1.79650000000000000000e+09
  +1.81600000000000000000e+09
  +1.83550000000000000000e+09
  +1.85500000000000000000e+09
  +1.87450000000000000000e+09
  +1.89400000000000000000e+09
  +1.91350000000000000000e+09
  +1.93300000000000000000e+09
  +1.95250000000000000000e+09
  +1.97200000000000000000e+09
  +1.99150000000000000000e+09
  +2.01100000000000000000e+09
  +2.03050000000000000000e+09
  +2.05000000000000000000e+09
  +2.06950000000000000000e+09
  +2.08900000000000000000e+09
  +2.10850000000000000000e+09
  +2.12800000000000000000e+09
  +2.14750000000000000000e+09
  +2.16700000000000000000e+09
  +2.18650000000000000000e+09
  +2.20600000000000000000e+09
  +2.22550000000000000000e+09
  +2.24500000000000000000e+09
  +2.26450000000000000000e+09
  +2.28400000000000000000e+09
  +2.30350000000000000000e+09
  +2.32300000000000000000e+09
  +2.34250000000000000000e+09
  +2.36200000000000000000e+09
  +2.38150000000000000000e+09
  +2.40100000000000000000e+09
  +2.42050000000000000000e+09
  +2.44000000000000000000e+09
  +2.45950000000000000000e+09
  +2.47900000000000000000e+09
  +2.49850000000000000000e+09
  +2.51800000000000000000e+09
  +2.53750000000000000000e+09
  +2.55700000000000000000e+09
  +2.57650000000000000000e+09
  +2.59600000000000000000e+09
  +2.61550000000000000000e+09
  +2.63500000000000000000e+09
  +2.65450000000000000000e+09
  +2.67400000000000000000e+09
  +2.69350000000000000000e+09
  +2.71300000000000000000e+09
  +2.73250000000000000000e+09
  +2.75200000000000000000e+09
  +2.77150000000000000000e+09
  +2.79100000000000000000e+09
  +2.81050000000000000000e+09
  +2.83000000000000000000e+09
  +2.84950000000000000000e+09
  +2.86900000000000000000e+09
  +2.88850000000000000000e+09
  +2.90800000000000000000e+09
  +2.92750000000000000000e+09
  +2.94700000000000000000e+09
  +2.96650000000000000000e+09
  +2.98600000000000000000e+09
  +3.00550000000000000000e+09
  +3.02500000000000000000e+09
  +3.04450000000000000000e+09
  +3.06400000000000000000e+09
  +3.08350000000000000000e+09
  +3.10300000000000000000e+09
  +3.12250000000000000000e+09
  +3.14200000000000000000e+09
  +3.16150000000000000000e+09
  +3.18100000000000000000e+09
  +3.20050000000000000000e+09
  +3.22000000000000000000e+09
  +3.23950000000000000000e+09
  +3.25900000000000000000e+09
  +3.27850000000000000000e+09
  +3.29800000000000000000e+09
  +3.31750000000000000000e+09
  +3.33700000000000000000e+09
  +3.35650000000000000000e+09
  +3.37600000000000000000e+09
  +3.39550000000000000000e+09
  +3.41500000000000000000e+09
  +3.43450000000000000000e+09
  +3.45400000000000000000e+09
  +3.47350000000000000000e+09
  +3.49300000000000000000e+09
  +3.51250000000000000000e+09
  +3.53200000000000000000e+09
  +3.55150000000000000000e+09
  +3.57100000000000000000e+09
  +3.59050000000000000000e+09
  +3.61000000000000000000e+09
  +3.62950000000000000000e+09
  +3.64900000000000000000e+09
  +3.66850000000000000000e+09
  +3.68800000000000000000e+09
  +3.70750000000000000000e+09
  +3.72700000000000000000e+09
  +3.74650000000000000000e+09
  +3.76600000000000000000e+09
  +3.78550000000000000000e+09
  +3.80500000000000000000e+09
  +3.82450000000000000000e+09
  +3.84400000000000000000e+09
  +3.86350000000000000000e+09
  +3.88300000000000000000e+09
  +3.90250000000000000000e+09
  +3.92200000000000000000e+09
  +3.94150000000000000000e+09
  +3.96100000000000000000e+09
  +3.98050000000000000000e+09
  +4.00000000000000000000e+09
</indep>
<dep dBS11 frequency>
  -6.02495682749702460984e-04
  -1.42927696671083957411e-03
  -2.10960835053345925963e-03
  -2.72108362559033258379e-03
  -3.29865500742183761357e-03
  -3.79476031903907065623e-03
  -4.33420945641564692163e-03
  -4.83560848066639289294e-03
  -5.33822360310201235456e-03
  -5.88519253047000909240e-03
  -6.41111129199814500090e-03
  -7.00681141866746695634e-03
  -7.61543120370058914531e-03
  -8.24606453770756683830e-03
  -8.95244698448850566297e-03
  -1.02157751261748863669e-02
  -1.15078703436325494036e-02
  -1.28043213179195904117e-02
  -1.41006749210031666342e-02
  -1.54597670204482621342e-02
  -1.68248589994199199138e-02
  -1.82454456901621521470e-02
  -1.97153393225441980752e-02
  -2.12199703142673286316e-02
  -2.28173748582039953581e-02
  -2.44630869659329536203e-02
  -2.61888873095588933793e-02
  -2.80025050406118546087e-02
  -2.98923543363848430443e-02
  -3.22631667306664399186e-02
  -3.47073363925067615576e-02
  -3.72456157795124781495e-02
  -3.98933476649396198677e-02
  -4.26498292241827836602e-02
  -4.55401029798327972031e-02
  -4.85662180613542146523e-02
  -5.17429834835937754733e-02
  -5.50859685431636797448e-02
  -5.86048182267127071299e-02
  -6.23162255765897024617e-02
  -6.62335354073432802657e-02
  -7.03760558396668012282e-02
  -7.47565430117462237369e-02
  -7.96616316152832376618e-02
  -8.48264406168366125183e-02
  -9.02706252652268892334e-02
  -9.60119976236206984499e-02
  -1.02079921026116182681e-01
  -1.08488242744133447926e-01
  -1.15268748716872815319e-01
  -1.22451395767353074517e-01
  -1.30047672871496350355e-01
  -1.38137682833851915820e-01
  -1.46718049232322816922e-01
  -1.55857690053492564664e-01
  -1.65640281644166414976e-01
  -1.76075807827394237304e-01
  -1.87598830040487635218e-01
  -2.00007508250809012962e-01
  -2.13484044508341935797e-01
  -2.28345788380977104959e-01
  -2.44708563180341648335e-01
  -2.63182032222376960373e-01
  -2.84109937550065527745e-01
  -3.08122996892060685425e-01
  -3.36446250533089519230e-01
  -3.69820220897228435497e-01
  -4.10259946910869977010e-01
  -4.59653459747753179165e-01
  -5.20451812509350131286e-01
  -5.97054961233285830247e-01
  -6.93145978683663455122e-01
  -8.14905815393648369493e-01
  -9.69263387835236134293e-01
  -1.16383990443463170017e+00
  -1.40999956785608837606e+00
  -1.71659609455131234590e+00
  -2.09511133354334067036e+00
  -2.55557072253230499470e+00
  -3.10509496011801777726e+00
  -3.74873961491516727307e+00
  -4.48631415751805295855e+00
  -5.31359540734248181337e+00
  -6.22132535402704966998e+00
  -7.20014673716588404773e+00
  -8.23254566474304461110e+00
  -9.30750578901817071653e+00
  -1.04107675715646958992e+01
  -1.15225228150036258512e+01
  -1.26384512858502322530e+01
  -1.37357984059347000283e+01
  -1.48087390298684784540e+01
  -1.58501779034749645803e+01
  -1.68344324645001677254e+01
  -1.77725079589856207463e+01
  -1.86416064564108410195e+01
  -1.94399018417748870036e+01
  -2.01728275126031135756e+01
  -2.08063068321133641803e+01
  -2.13673163187480774639e+01
  -2.18347461657092587473e+01
  -2.22053088687658330969e+01
  -2.24945028236706257019e+01
  -2.26715742317655539750e+01
  -2.27694018630371353140e+01
  -2.27829316261441618963e+01
  -2.27152488273516048878e+01
  -2.25929826213637632293e+01
  -2.24059603921710071006e+01
  -2.21823426347779140144e+01
  -2.19287139708774567737e+01
  -2.16468380978375272150e+01
  -2.13572358416441971940e+01
  -2.10546228618809116995e+01
  -2.07513889006319374175e+01
  -2.04519301156303754397e+01
  -2.01519107597778130980e+01
  -1.98630621106860587588e+01
  -1.95799689221777555304e+01
  -1.93068115639698234531e+01
  -1.90465089385688308710e+01
  -1.87926202238748309981e+01
  -1.85527824712092339610e+01
  -1.83227589435546356356e+01
  -1.81031326462721260384e+01
  -1.78966682910285186381e+01
  -1.76968718147652310790e+01
  -1.75095973679661369715e+01
  -1.73317777606747043251e+01
  -1.71624316661442186671e+01
  -1.70041340664818321216e+01
  -1.68520476677553752154e+01
  -1.67096470375619503557e+01
  -1.65754719568099204707e+01
  -1.64477129191471185266e+01
  -1.63289515996724468039e+01
  -1.62155436027935913046e+01
  -1.61095476215195567704e+01
  -1.60105683003961516420e+01
  -1.59162637632745163074e+01
  -1.58292785727323597200e+01
  -1.57468739759283078428e+01
  -1.56700835304165906336e+01
  -1.55993192928352346627e+01
  -1.55318390580349845465e+01
  -1.54703667422206301296e+01
  -1.54127999819709398110e+01
  -1.53594601800943149073e+01
  -1.53113989448982472652e+01
  -1.52653810197480730437e+01
  -1.52234339209200779663e+01
  -1.51839273745495724199e+01
  -1.51466341607825931703e+01
  -1.51129755155258322930e+01
  -1.50802632590373200117e+01
  -1.50507702870348545332e+01
  -1.50236170386744163352e+01
  -1.49980362367413118108e+01
  -1.49756379187058197289e+01
  -1.49541851235098022244e+01
  -1.49352887888167735753e+01
  -1.49186469582461445071e+01
  -1.49030167160874977839e+01
  -1.48901849199271669733e+01
  -1.48782972974682010658e+01
  -1.48683727320635501457e+01
  -1.48606363356511046447e+01
  -1.48534120092676360514e+01
  -1.48486552222727947736e+01
  -1.48448129765164402727e+01
  -1.48424066722755654268e+01
  -1.48421398065415832690e+01
  -1.48419323926526818269e+01
  -1.48439023249137402871e+01
  -1.48468276122376572346e+01
  -1.48507131267997376511e+01
  -1.48566184259778122367e+01
  -1.48623391979913890282e+01
  -1.48698919822853099504e+01
  -1.48784123705006408045e+01
  -1.48874536809163728890e+01
  -1.48982699769679705071e+01
  -1.49089505819891865457e+01
  -1.49209688445167021342e+01
  -1.49339667504979303203e+01
  -1.49470721234588328485e+01
  -1.49617228809385878208e+01
  -1.49762802039494342665e+01
  -1.49917772369779260799e+01
  -1.50082619358820057442e+01
  -1.50244583988931719176e+01
  -1.50419785821344831334e+01
  -1.50594382420562755698e+01
  -1.50774201654317163701e+01
  -1.50963893974878011761e+01
  -1.51146862860086717006e+01
  -1.51340871678372383968e+01
  -1.51534134218763600899e+01
  -1.51728553157783316863e+01
  -1.51932724332514190735e+01
  -1.52126414734367045867e+01
</dep>
<dep dBS21 frequency>
  -4.80009885938335401079e+01
  -4.65078452205552039800e+01
  -4.52564931758651312066e+01
  -4.41891031544955694699e+01
  -4.32648925699210025186e+01
  -4.24545271558806476264e+01
  -4.17431105858661055663e+01
  -4.11115745529600573605e+01
  -4.05512018598622034915e+01
  -4.00545299667953145217e+01
  -3.96121229993433416894e+01
  -3.92232140361696153263e+01
  -3.88803175101981537409e+01
  -3.85811408475981352240e+01
  -3.83254945822039800873e+01
  -3.81069839576311579776e+01
  -3.79290722328391396445e+01
  -3.77885550318852665441e+01
  -3.76845951453896788053e+01
  -3.76205415433416661131e+01
  -3.75925138461834720260e+01
  -3.76044880157010936728e+01
  -3.76564902689256939539e+01
  -3.77487123242438045168e+01
  -3.78878436872602435415e+01
  -3.80720608470363259812e+01
  -3.83076525293950069795e+01
  -3.85991408128876827277e+01
  -3.89501223035848624932e+01
  -3.93710778341341978148e+01
  -3.98684324412802411075e+01
  -4.04561982213766810901e+01
  -4.11515747692062348051e+01
  -4.19740053438126565766e+01
  -4.29586119772634162928e+01
  -4.41480768799133542757e+01
  -4.56144230860153498952e+01
  -4.74793016102084806107e+01
  -4.99640705497384942646e+01
  -5.35684052220185336068e+01
  -5.96618130381420712638e+01
  -6.47612381633925195956e+01
  -5.64397275872557884213e+01
  -5.16205626936218351375e+01
  -4.85226985044731478069e+01
  -4.62919889402628257358e+01
  -4.45921426369055637906e+01
  -4.32678568342073219810e+01
  -4.22316190677739342618e+01
  -4.14414891037501149640e+01
  -4.08770512756439217128e+01
  -4.05346159001479762196e+01
  -4.04349270242232421424e+01
  -4.06128519837694241801e+01
  -4.11446293607072348664e+01
  -4.21706330705604059972e+01
  -4.39704567370887318134e+01
  -4.71869794586747417497e+01
  -5.27393809829554101043e+01
  -4.94045227811425604614e+01
  -4.23789256274781820366e+01
  -3.75604370984652149446e+01
  -3.38735966275327768926e+01
  -3.08200254938382585124e+01
  -2.81682577659224584465e+01
  -2.57973975699227011660e+01
  -2.36295669889838038102e+01
  -2.16219117950269890116e+01
  -1.97414791397004982798e+01
  -1.79657526562042981766e+01
  -1.62857683902310448332e+01
  -1.46877655949255796486e+01
  -1.31693076376427313789e+01
  -1.17281113284401996566e+01
  -1.03620844287962849961e+01
  -9.08361174326368825405e+00
  -7.89005344332621660897e+00
  -6.79237046426417911960e+00
  -5.79826991705389360732e+00
  -4.90778701893950941582e+00
  -4.13246193650915394358e+00
  -3.46340335795339093750e+00
  -2.89826124435194909523e+00
  -2.43141282541873549050e+00
  -2.04653641714075318347e+00
  -1.73874516959684077833e+00
  -1.49089275411598487509e+00
  -1.29247773484819461487e+00
  -1.13687975569324883907e+00
  -1.01104893868546619196e+00
  -9.12190746359970550117e-01
  -8.32525141784268285505e-01
  -7.67087919542715823695e-01
  -7.15564125614279844534e-01
  -6.71711707304310512434e-01
  -6.35904392115735461743e-01
  -6.05839435454586405783e-01
  -5.79210095840951733059e-01
  -5.57946969591171737513e-01
  -5.38535120101116704383e-01
  -5.21836566989919981019e-01
  -5.07477788528078233021e-01
  -4.93878656251009129363e-01
  -4.83048378392406996262e-01
  -4.72734700372276828162e-01
  -4.63549345116953115387e-01
  -4.55804756416553547016e-01
  -4.48200493905135943784e-01
  -4.42247785588834374515e-01
  -4.36610189657178460187e-01
  -4.31470641824504341777e-01
  -4.27473788140216581777e-01
  -4.23413844931361804669e-01
  -4.20428655529098471710e-01
  -4.17717972244235846713e-01
  -4.15144085839059762133e-01
  -4.13548534258300959365e-01
  -4.11779682439866678845e-01
  -4.10653985910406860160e-01
  -4.09786838442273981808e-01
  -4.08807335863434873069e-01
  -4.08700374759563112015e-01
  -4.08345628209882183235e-01
  -4.08337053491419410545e-01
  -4.08577691455390412667e-01
  -4.08539277409474543834e-01
  -4.09251442076338678433e-01
  -4.09697135878165807910e-01
  -4.10269947153636127535e-01
  -4.11091673313354277752e-01
  -4.11600097679561849340e-01
  -4.12612395103296059062e-01
  -4.13411921706301754842e-01
  -4.14179457594514355279e-01
  -4.15206262158388517136e-01
  -4.15906788288825990385e-01
  -4.16926719609831908375e-01
  -4.17800752596165336783e-01
  -4.18528110009380838186e-01
  -4.19532421013012191136e-01
  -4.20212669072164701767e-01
  -4.21090559320615231975e-01
  -4.21886145065443807223e-01
  -4.22452957122702643655e-01
  -4.23318207273738478236e-01
  -4.23871502289932033936e-01
  -4.24500938858642484774e-01
  -4.25108945957600681265e-01
  -4.25431441195875670314e-01
  -4.26021498726747549490e-01
  -4.25986116766668421185e-01
  -4.25590453335991047989e-01
  -4.24886203888724223177e-01
  -4.23572705817193362332e-01
  -4.22200095375197037573e-01
  -4.20307429980017799309e-01
  -4.18061152084981957344e-01
  -4.15619610535372219218e-01
  -4.12652831726139424084e-01
  -4.09605495090548055170e-01
  -4.06157599867209673228e-01
  -4.02362823564954841249e-01
  -3.98466462486159522793e-01
  -3.94116648847717188087e-01
  -3.89668075081589959652e-01
  -3.84926561999898053656e-01
  -3.79844805128629114943e-01
  -3.74738504100741109948e-01
  -3.69240040293572824304e-01
  -3.63634542411291117325e-01
  -3.57825963521368528575e-01
  -3.51683592258716593015e-01
  -3.45579602689084219858e-01
  -3.39135718860415436016e-01
  -3.32564204044350997247e-01
  -3.25864903869665711866e-01
  -3.18853139661264772808e-01
  -3.11902085582083543613e-01
  -3.04670722534836402318e-01
  -2.97300753821665375565e-01
  -2.89865784570634832384e-01
  -2.82159498513685991217e-01
  -2.74487018276018235330e-01
  -2.66613306429072938197e-01
  -2.58591773728816809452e-01
  -2.50557278588807108566e-01
  -2.42286707751714486259e-01
  -2.34026405867321513066e-01
  -2.25620302939442546331e-01
  -2.17059058362390894237e-01
  -2.08528084793619700177e-01
  -1.99791542638739799687e-01
  -1.91045015165172360483e-01
  -1.82204773512014750469e-01
  -1.73203587242401313429e-01
  -1.64268279047861925912e-01
  -1.55153715357624844007e-01
  -1.46016897962810671130e-01
  -1.36830100332696075194e-01
  -1.27477780543108709654e-01
  -1.18220354355893161880e-01
</dep>
<dep S[2,2] frequency>
  +9.94649450215434383082e-01-j1.02419504533522304213e-01
  +9.92262364102990845893e-01-j1.22326155811563377918e-01
  +9.89521952372105828566e-01-j1.42231550895204006402e-01
  +9.86377174554861513300e-01-j1.62126935158718094021e-01
  +9.82811105733255585548e-01-j1.82010339640934132310e-01
  +9.78870135566766830237e-01-j2.01893992235315733463e-01
  +9.74465007216545386903e-01-j2.21748939923441357180e-01
  +9.69662923355715244966e-01-j2.41598630390497892684e-01
  +9.64436301035084930788e-01-j2.61431305231562494118e-01
  +9.58751294351365190849e-01-j2.81233727784245823855e-01
  +9.52658192062496467223e-01-j3.01028201028200936840e-01
  +9.46083595735365490142e-01-j3.20777406551766841591e-01
  +9.39068384296923963639e-01-j3.40504432390635214389e-01
  +9.31602255519847100018e-01-j3.60202793072736227042e-01
  +9.23637096647346500511e-01-j3.79843993706208471473e-01
  +9.15189623008944241889e-01-j3.99365944960543284292e-01
  +9.06242969828379596464e-01-j4.18824240449202911396e-01
  +8.96813259718219790706e-01-j4.38234975268609938670e-01
  +8.86901422074786838223e-01-j4.57601032886872927108e-01
  +8.76450326211520192032e-01-j4.76876262612945467367e-01
  +8.65501613023061833196e-01-j4.96102754358334063767e-01
  +8.54009023098964870080e-01-j5.15238367413650588666e-01
  +8.41969403869360810688e-01-j5.34286324982451210630e-01
  +8.29389218130783478777e-01-j5.53259486455631943613e-01
  +8.16209442031550991281e-01-j5.72093222897428144158e-01
