<Qucs Dataset 1.0.7>
<indep Ctee_0 1>
  -4.50158158078553060759e-12
</indep>
<indep Ctee 1>
  +4.50158158078553060759e-12
</indep>
<indep RL 1>
  +1.00000000000000000000e+02
</indep>
<indep RS 1>
  +5.00000000000000000000e+01
</indep>
<indep w 1>
  +3.14159265358979320526e+09
</indep>
<indep f0 1>
  +5.00000000000000000000e+08
</indep>
<indep frequency 71>
  +1.00000000000000000000e+08
  +1.10000000000000000000e+08
  +1.20000000000000000000e+08
  +1.30000000000000000000e+08
  +1.40000000000000000000e+08
  +1.50000000000000000000e+08
  +1.60000000000000000000e+08
  +1.70000000000000000000e+08
  +1.80000000000000000000e+08
  +1.90000000000000000000e+08
  +2.00000000000000000000e+08
  +2.10000000000000000000e+08
  +2.20000000000000000000e+08
  +2.30000000000000000000e+08
  +2.40000000000000000000e+08
  +2.50000000000000000000e+08
  +2.60000000000000000000e+08
  +2.70000000000000000000e+08
  +2.80000000000000000000e+08
  +2.90000000000000000000e+08
  +3.00000000000000000000e+08
  +3.10000000000000000000e+08
  +3.20000000000000000000e+08
  +3.30000000000000000000e+08
  +3.40000000000000000000e+08
  +3.50000000000000000000e+08
  +3.60000000000000000000e+08
  +3.70000000000000000000e+08
  +3.80000000000000000000e+08
  +3.90000000000000000000e+08
  +4.00000000000000000000e+08
  +4.10000000000000000000e+08
  +4.20000000000000000000e+08
  +4.30000000000000000000e+08
  +4.40000000000000000000e+08
  +4.50000000000000000000e+08
  +4.60000000000000000000e+08
  +4.70000000000000000000e+08
  +4.80000000000000000000e+08
  +4.90000000000000000000e+08
  +5.00000000000000000000e+08
  +5.10000000000000000000e+08
  +5.20000000000000000000e+08
  +5.30000000000000000000e+08
  +5.40000000000000000000e+08
  +5.50000000000000000000e+08
  +5.60000000000000000000e+08
  +5.70000000000000000000e+08
  +5.80000000000000000000e+08
  +5.90000000000000000000e+08
  +6.00000000000000000000e+08
  +6.10000000000000000000e+08
  +6.20000000000000000000e+08
  +6.30000000000000000000e+08
  +6.40000000000000000000e+08
  +6.50000000000000000000e+08
  +6.60000000000000000000e+08
  +6.70000000000000000000e+08
  +6.80000000000000000000e+08
  +6.90000000000000000000e+08
  +7.00000000000000000000e+08
  +7.10000000000000000000e+08
  +7.20000000000000000000e+08
  +7.30000000000000000000e+08
  +7.40000000000000000000e+08
  +7.50000000000000000000e+08
  +7.60000000000000000000e+08
  +7.70000000000000000000e+08
  +7.80000000000000000000e+08
  +7.90000000000000000000e+08
  +8.00000000000000000000e+08
</indep>
<dep S11_dB frequency>
  -6.95242125184242665270e-01
  -8.41451578186685145155e-01
  -1.00172329397077164437e+00
  -1.17612600533861999530e+00
  -1.36474826224216028159e+00
  -1.56770211239059831243e+00
  -1.78512721302929566747e+00
  -2.01719543374672394265e+00
  -2.26411602707247761046e+00
  -2.52614146467469380397e+00
  -2.80357406330074043765e+00
  -3.09677355778075824588e+00
  -3.40616582054287153625e+00
  -3.73225298106825631450e+00
  -4.07562526855199269704e+00
  -4.43697499232713177264e+00
  -4.81711319525322512192e+00
  -5.21698967654173895170e+00
  -5.63771729869433357862e+00
  -6.08060179227541119928e+00
  -6.54717868772660871457e+00
  -7.03925958925298633773e+00
  -7.55899084505975515924e+00
  -8.10892889157784502174e+00
  -8.69213836687974605866e+00
  -9.31232184628674630744e+00
  -9.97399433666898360684e+00
  -1.06827224959157938144e+01
  -1.14454597614276014639e+01
  -1.22710276259954635947e+01
  -1.31708269456082138760e+01
  -1.41599253157999243058e+01
  -1.52587876336203382976e+01
  -1.64961683819428870379e+01
  -1.79142486698756151497e+01
  -1.95784994783271137919e+01
  -2.15986915156028516094e+01
  -2.41807140291362934192e+01
  -2.77869385474878782816e+01
  -3.38929901583014299149e+01
  -3.04859336664451973320e+02
  -3.40666789949708572749e+01
  -2.81341424092730072459e+01
  -2.47010849183264440398e+01
  -2.22917065010069421760e+01
  -2.04434595790238162749e+01
  -1.89502773757781142194e+01
  -1.77022098189301573257e+01
  -1.66336043830835649260e+01
  -1.57020959006431848337e+01
  -1.48787429970508568999e+01
  -1.41428907479557270932e+01
  -1.34792781118348159453e+01
  -1.28763071070046475342e+01
  -1.23249551991554042729e+01
  -1.18180637853030710005e+01
  -1.13498567406459685003e+01
  -1.09156051469877741766e+01
  -1.05113879676354819992e+01
  -1.01339174882367117903e+01
  -9.78040956038740638689e+00
  -9.44848551475701192714e+00
  -9.13609689385403278550e+00
  -8.84146691215445557077e+00
  -8.56304436859516293623e+00
  -8.29946695941636569671e+00
  -8.04953177810631537170e+00
  -7.81217137443604237035e+00
  -7.58643415935613774082e+00
  -7.37146824075731466053e+00
  -7.16650799236826863137e+00
</dep>
<dep S[1,1] frequency>
  +9.23076923076922684075e-01+j2.22044604925031258781e-16
  +9.07668828691339135695e-01+j2.22044604925031308085e-16
  +8.91074130105900197307e-01
  +8.73360809291869544246e-01+j1.66533453693773481064e-16
  +8.54599406528189442511e-01+j1.66533453693773481064e-16
  +8.34862385321101130309e-01-j1.11022302462515629390e-16
  +8.14223512336719190685e-01+j3.88578058618804739844e-16
  +7.92757260666905216873e-01
  +7.70538243626062269165e-01
  +7.47640685075148470062e-01-j5.55111512312578208582e-17
  +7.24137931034482429382e-01+j3.33066907387546962127e-16
  +7.00102006120367326147e-01-j2.77555756156289085802e-16
  +6.75603217158176838630e-01+j5.55111512312578146952e-17
  +6.50709805216242553882e-01+j6.10622663543836097233e-16
  +6.25487646293887644688e-01+j7.77156117237609578297e-16
  +5.99999999999999644729e-01
  +5.74307304785894201515e-01+j2.77555756156289135106e-16
  +5.48467017652523924909e-01+j1.11022302462515629390e-16
  +5.22533495736905995166e-01+j4.44089209850062616169e-16
  +4.96557916791379949650e-01+j5.55111512312578270212e-17
  +4.70588235294117529506e-01+j2.22044604925031258781e-16
  +4.44669170759895648892e-01+j3.88578058618804641237e-16
  +4.18842224744608193632e-01+j1.66533453693773481064e-16
  +3.93145723042630068633e-01-j3.33066907387546962127e-16
  +3.67614879649890591296e-01-j2.22044604925031258781e-16
  +3.42281879194631155627e-01+j4.99600361081320443191e-16
  +3.17175974710221408870e-01+j3.33066907387546962127e-16
  +2.92323597828896386552e-01+j5.55111512312578270212e-17
  +2.67748478701825609605e-01+j2.77555756156289036498e-16
  +2.43471773190748641547e-01+j2.77555756156289085802e-16
  +2.19512195121951164678e-01+j1.66533453693773431760e-16
  +1.95886151638364064409e-01+j5.55111512312578146952e-17
  +1.72607879924953133699e-01-j4.99600361081320443191e-16
  +1.49689583812370519134e-01+j5.55111512312578171604e-16
  +1.27141568981063823873e-01+j5.55111512312578146952e-17
  +1.04972375690607688803e-01+j3.88578058618804789148e-16
  +8.31889081455808865329e-02+j5.55111512312578208582e-17
  +6.17965597791463872035e-02+j4.44089209850062517562e-16
  +4.07993338884261591559e-02
  +2.01999591920020149516e-02+j5.55111512312578072997e-16
  +2.77555756156289135106e-16+j4.99600361081320443191e-16
  -1.98000392079984988136e-02+j3.33066907387546962127e-16
  -3.92006149116064239735e-02+j5.55111512312578146952e-17
  -5.82030514221134054331e-02-j5.55111512312578270212e-17
  -7.68094534711961096640e-02+j5.55111512312578208582e-17
  -9.50226244343892467725e-02-j1.66533453693773481064e-16
  -1.12845990063874912490e-01+j1.11022302462515654042e-16
  -1.30283527570012325203e-01-j1.11022302462515654042e-16
  -1.47339699863574313810e-01+j4.44089209850062566866e-16
  -1.64019394750041513920e-01+j2.77555756156289135106e-16
  -1.80327868852458661486e-01+j2.77555756156289085802e-16
  -1.96270696029577584873e-01+j5.55111512312578208582e-17
  -2.11853720050441451939e-01
  -2.27083011284587743539e-01+j2.77555756156289085802e-16
  -2.41964827167980789380e-01-j1.11022302462515629390e-16
  -2.56505576208177932251e-01+j7.77156117237609381081e-16
  -2.70711785297549634155e-01-j1.11022302462515629390e-16
  -2.84590070110173232187e-01-j1.66533453693773431760e-16
  -2.98147108366086710518e-01
  -3.11389615755405912978e-01
  -3.24324324324324231306e-01+j1.11022302462515641716e-16
  -3.36957963134862592547e-01+j3.33066907387546912823e-16
  -3.49297241020301907355e-01+j1.66533453693773456412e-16
  -3.61348831268361148084e-01+j3.33066907387546962127e-16
  -3.73119358074222695620e-01+j1.11022302462515654042e-16
  -3.84615384615384359179e-01+j5.55111512312578146952e-17
  -3.95843402609956762639e-01-j1.66533453693773431760e-16
  -4.06809823229327349736e-01-j1.66533453693773431760e-16
  -4.17520969245107342882e-01
  -4.27983068298821656139e-01
  -4.38202247191011418082e-01+j5.55111512312578270212e-17
</dep>
