! Sonnet Data File
! From: sonnet Version : 18.53-Lite
! From Emgraph Data: 
! Data File Written: 03/30/2024 16:41:57
!< HDATE 03/30/2024 16:40:17
!< MDATE 03/30/2024 16:40:17
!< PARAMS
!< L0 = 1.75
!< W1 = 0.93
!< L1 = 8.88
!< Lstub = 7.9
!< Wstub = 0.7
!< L2 = 8.71
!< W2 = 1.27
!< END PARAMS
# GHZ S MA R 50.00000
4.000000000000000 0.9771609075437 7.5650664786720 0.0011783250506 51.624136504489 0.0011783250506 51.624136504489 0.9767488825506 12.884539145830
4.010000000000001 0.9770224557658 6.6282935276657 0.0012251443801 51.381136973124 0.0012251443801 51.381136973124 0.9766030356043 11.952894906864
4.020000000000000 0.9768776286504 5.6849680463533 0.0012747991557 51.127973147829 0.0012747991557 51.127973147829 0.9764507979596 11.014592015863
4.030000000000000 0.9767260776659 4.7348458408722 0.0013274943881 50.863934056440 0.0013274943881 50.863934056440 0.9762918440006 10.069387006229
4.040000000000000 0.9765674306342 3.7776714925987 0.0013834522969 50.588302304209 0.0013834522969 50.588302304209 0.9761258260748 9.1170255024769
4.050000000000000 0.9764012899069 2.8131776789103 0.0014429139712 50.300354246271 0.0014429139712 50.300354246271 0.9759523730600 8.1572415816738
4.060000000000000 0.9762272303787 1.8410844367465 0.0015061412130 49.999360053961 0.0015061412130 49.999360053961 0.9757710886060 7.1897570884477
4.070000000000000 0.9760447973086 0.8610983692910 0.0015734185850 49.684583660725 0.0015734185850 49.684583660725 0.9755815492141 6.2142808995455
4.080000000000000 0.9758535039251 -0.127088209500 0.0016450556888 49.355282576197 0.0016450556888 49.355282576197 0.9753833021336 5.2305081334978
4.090000000000000 0.9756528287933 -1.123798198380 0.0017213897026 49.010707557054 0.0017213897026 49.010707557054 0.9751758630565 4.2381193004810
4.100000000000001 0.9754422129141 -2.129370706797 0.0018027882115 48.650102123245 0.0018027882115 48.650102123245 0.9749587135887 3.2367793869500
4.110000000000000 0.9752210565241 -3.144162134624 0.0018896523673 48.272701908067 0.0018896523673 48.272701908067 0.9747312984693 2.2261368690374
4.120000000000000 0.9749887155615 -4.168547341691 0.0019824204226 47.877733830374 0.0019824204226 47.877733830374 0.9744930225128 1.2058226480628
4.130000000000000 0.9747444977561 -5.202920916108 0.0020815716875 47.464415076893 0.0020815716875 47.464415076893 0.9742432472377 0.1754489007627
4.140000000000001 0.9744876582966 -6.247698551438 0.0021876309662 47.031951882101 0.0021876309662 47.031951882101 0.9739812871469 -0.865392163972
4.150000000000000 0.9742173950226 -7.303318543987 0.0023011735378 46.579538092467 0.0023011735378 46.579538092467 0.9737064056160 -1.917129651001
4.160000000000000 0.9739328430798 -8.370243422829 0.0024228307587 46.106353500939 0.0024228307587 46.106353500939 0.9734178103418 -2.980215437683
4.170000000000000 0.9736330689685 -9.448961726777 0.0025532963702 45.611561936401 0.0025532963702 45.611561936401 0.9731146482942 -4.055125756872
4.180000000000001 0.9733170639038 -10.53998994428 0.0026933336140 45.094309091338 0.0026933336140 45.094309091338 0.9727960001097 -5.142362916914
4.190000000000000 0.9729837363958 -11.64387463428 0.0028437832697 44.553720069127 0.0028437832697 44.553720069127 0.9724608738522 -6.242457172960
4.200000000000000 0.9726319039406 -12.76119474841 0.0030055727500 43.988896630133 0.0030055727500 43.988896630133 0.9721081980573 -7.355968765657
4.210000000000000 0.9722602836984 -13.89256417764 0.0031797264086 43.398914113105 0.0031797264086 43.398914113105 0.9717368139619 -8.483490145313
4.220000000000001 0.9718674820118 -15.03863454952 0.0033673772429 42.782818005123 0.0033673772429 42.782818005123 0.9713454668086 -9.625648401929
4.230000000000000 0.9714519825977 -16.20009830598 0.0035697802047 42.139620129528 0.0035697802047 42.139620129528 0.9709327960914 -10.78310792414
4.240000000000000 0.9710121332115 -17.37769209544 0.0037883273650 41.468294416682 0.0037883273650 41.468294416682 0.9704973245921 -11.95657331320
4.250000000000000 0.9705461305545 -18.57220051833 0.0040245652247 40.767772217094 0.0040245652247 40.767772217094 0.9700374460283 -13.14679258156
4.260000000000001 0.9700520031502 -19.78446027027 0.0042802145124 40.036937110057 0.0042802145124 40.036937110057 0.9695514111051 -14.35456066981
4.270000000000000 0.9695275918679 -21.01536473418 0.0045571928702 39.274619153566 0.0045571928702 39.274619153566 0.9690373117240 -15.58072332029
4.280000000000000 0.9689705277128 -22.26586907996 0.0048576409018 38.479588512493 0.0048576409018 38.479588512493 0.9684930630606 -16.82618135138
4.290000000000000 0.9683782064312 -23.53699593972 0.0051839521427 37.650548391734 0.0051839521427 37.650548391734 0.9679163831675 -18.09189538253
4.300000000000001 0.9677477593907 -24.82984173693 0.0055388076170 36.786127188890 0.0055388076170 36.786127188890 0.9673047696964 -19.37889106796
4.310000000000000 0.9670760200929 -26.14558376073 0.0059252157681 35.884869766736 0.0059252157681 35.884869766736 0.9666554732521 -20.68826490523
4.320000000000000 0.9663594855458 -27.48548809127 0.0063465587063 34.945227728833 0.0063465587063 34.945227728833 0.9659654667991 -22.02119069553
4.330000000000000 0.9655942715633 -28.85091849979 0.0068066458914 33.965548561525 0.0068066458914 33.965548561525 0.9652314104214 -23.37892674432
4.340000000000000 0.9647760608693 -30.24334646823 0.0073097765987 32.944063481755 0.0073097765987 32.944063481755 0.9644496105924 -24.76282390519
4.350000000000001 0.9639000426362 -31.66436249810 0.0078608127784 31.878873801685 0.0078608127784 31.878873801685 0.9636159729331 -26.17433458694
4.360000000000000 0.9629608417945 -33.11568890889 0.0084652642533 30.767935587108 0.0084652642533 30.767935587108 0.9627259472141 -27.61502286332
4.370000000000000 0.9619524360705 -34.59919436196 0.0091293885990 29.609042345861 0.0091293885990 29.609042345861 0.9617744630811 -29.08657584921
4.380000000000000 0.9608680582430 -36.11691039015 0.0098603085436 28.399805433356 0.0098603085436 28.399805433356 0.9607558546305 -30.59081653481
4.390000000000001 0.9597000805160 -37.67105026552 0.0106661503348 27.137631803112 0.0106661503348 27.137631803112 0.9596637715280 -32.12971830367
4.400000000000000 0.9584398771564 -39.26403060219 0.0115562072627 25.819698658363 0.0115562072627 25.819698658363 0.9584910738013 -33.70542140048
4.410000000000000 0.9570776605912 -40.89849616866 0.0125411334580 24.442924473635 0.0125411334580 24.442924473635 0.9572297067285 -35.32025166334
4.420000000000000 0.9556022849377 -42.57734847914 0.0136331742206 23.003935748889 0.0136331742206 23.003935748889 0.9558705513355 -36.97674189334
4.430000000000001 0.9540010093750 -44.30377884915 0.0148464405554 21.499028728962 0.0148464405554 21.499028728962 0.9544032448406 -38.67765630389
4.440000000000000 0.9522592117373 -46.08130674269 0.0161972373483 19.924125161974 0.0161972373483 19.924125161974 0.9528159638685 -40.42601857622
4.450000000000000 0.9503600400817 -47.91382441206 0.0177044567985 18.274720975077 0.0177044567985 18.274720975077 0.9510951612785 -42.22514414723
4.460000000000000 0.9482839865565 -49.80564904458 0.0193900514389 16.545826506015 0.0193900514389 16.545826506015 0.9492252448700 -44.07867747498
4.470000000000001 0.9460083633990 -51.76158389209 0.0212796044362 14.731896633898 0.0212796044362 14.731896633898 0.9471881828247 -45.99063516769
4.480000000000000 0.9435066549848 -53.78699017821 0.0234030190259 12.826748790101 0.0234030190259 12.826748790101 0.9449630162633 -47.96545602594
4.490000000000000 0.9407477120379 -55.88787196802 0.0257953540538 10.823466385973 0.0257953540538 10.823466385973 0.9425252533357 -50.00805923569
4.500000000000000 0.9376947437605 -58.07097665486 0.0284978388364 8.7142846522506 0.0284978388364 8.7142846522506 0.9398461113487 -52.12391215676
4.510000000000001 0.9343040498984 -60.34391428064 0.0315591080623 6.4904552300790 0.0315591080623 6.4904552300790 0.9368915628650 -54.31910936942
4.520000000000000 0.9305234164876 -62.71529956290 0.0350367062865 4.1420850728917 0.0350367062865 4.1420850728917 0.9336211276027 -56.60046484418
4.530000000000000 0.9262900747792 -65.19492124497 0.0389989215864 1.6579443096490 0.0389989215864 1.6579443096490 0.9299863331510 -58.97561924200
4.540000000000000 0.9215280907992 -67.79394417697 0.0435270185819 -0.974763296438 0.0435270185819 -0.974763296438 0.9259287425338 -61.45316434167
4.550000000000001 0.9161450110438 -70.52515028319 0.0487179508946 -3.770674716077 0.0487179508946 -3.770674716077 0.9213774137835 -64.04278626489
4.560000000000000 0.9100275360080 -73.40322508785 0.0546876393053 -6.746595196417 0.0546876393053 -6.746595196418 0.9162456137845 -66.75542822831
4.570000000000000 0.9030359238803 -76.44509627164 0.0615748985131 -9.921887918266 0.0615748985131 -9.921887918266 0.9104265581285 -69.60347149138
4.580000000000000 0.8949967529890 -79.67032952957 0.0695460720779 -13.31893375004 0.0695460720779 -13.31893375004 0.9037878749799 -72.60092899570
4.590000000000000 0.8856935736536 -83.10158227410 0.0788003710844 -16.96366692112 0.0788003710844 -16.96366692112 0.8961644435533 -75.76363853231
4.600000000000001 0.8748549270483 -86.76510716674 0.0895757745134 -20.88618422108 0.0895757745134 -20.88618422108 0.8873491781626 -79.10942807010
4.610000000000000 0.8621391951087 -90.69127841565 0.1021550768362 -25.12141052939 0.1021550768362 -25.12141052939 0.8770813514081 -82.65820104512
4.620000000000000 0.8471159298314 -94.91507930080 0.1168711665372 -29.70977302900 0.1168711665372 -29.70977302900 0.8650321917645 -86.43184623200
4.630000000000000 0.8292438870782 -99.47642693671 0.1341097409527 -34.69778170836 0.1341097409527 -34.69778170836 0.8507879833233 -90.45380408743
4.640000000000001 0.8078473808809 -104.4201031900 0.1543062145610 -40.13831914335 0.1543062145610 -40.13831914335 0.8338320755880 -94.74800286501
4.650000000000000 0.7820954703438 -109.7948862164 0.1779313758015 -46.09028958990 0.1779313758015 -46.09028958990 0.8135296863195 -99.33669425192
4.660000000000000 0.7509938820536 -115.6512134018 0.2054574277296 -52.61705210859 0.2054574277296 -52.61705210859 0.7891240300819 -104.2364581951
4.670000000000000 0.7134083883592 -122.0363536655 0.2372932019247 -59.78278114737 0.2372932019247 -59.78278114737 0.7597600031744 -109.4513374261
4.680000000000001 0.6681500989780 -128.9856950318 0.2736771420862 -67.64566606829 0.2736771420862 -67.64566606829 0.7245620889810 -114.9618434777
4.690000000000000 0.6141625009505 -136.5085695972 0.3145247034754 -76.24696815861 0.3145247034754 -76.24696815861 0.6828018509498 -120.7088288101
4.700000000000000 0.5508421416956 -144.5673753399 0.3592510942778 -85.59593750674 0.3592510942778 -85.59593750674 0.6341840767405 -126.5727059582
4.710000000000000 0.4784748383081 -153.0496279526 0.4066338051011 -95.65302726936 0.4066338051011 -95.65302726936 0.5792360611118 -132.3522882860
4.720000000000001 0.3986637950130 -161.7320404006 0.4548225875240 -106.3174856204 0.4548225875240 -106.3174856204 0.5196851673675 -137.7543271040
4.730000000000000 0.3145143136506 -170.2255048580 0.5015932557901 -117.4279262316 0.5015932557901 -117.4279262316 0.4585905136911 -142.4134257873
4.740000000000000 0.2303626474426 -177.8409428787 0.5448255216344 -128.7818110147 0.5448255216344 -128.7818110147 0.3999709679205 -145.9671808005
4.750000000000000 0.1511373623363 176.90724603460 0.5830129684014 -140.1704611991 0.5830129684014 -140.1704611991 0.3478579481076 -148.2000804118
4.760000000000001 0.0822300741437 178.86391048636 0.6155489938047 -151.4161581512 0.6155489938047 -151.4161581512 0.3050529871041 -149.2181641534
4.770000000000000 0.0363761758507 -146.0941786755 0.6426713773430 -162.3963828922 0.6426713773430 -162.3963828922 0.2721796288316 -149.5257084681
4.780000000000000 0.0491757236723 -85.82419184599 0.6651632423376 -173.0488184225 0.6651632423376 -173.0488184225 0.2476270449591 -149.8667145475
4.790000000000000 0.0803397210692 -74.84203840056 0.6840046776725 176.63883168193 0.6840046776725 176.63883168193 0.2284653406390 -150.9042833360
4.800000000000001 0.1043323030110 -75.63056934758 0.7001144249505 166.64557474375 0.7001144249505 166.64557474375 0.2116829852103 -153.0026914352
4.810000000000000 0.1193763223556 -79.09553098265 0.7142190834111 156.93329733533 0.7142190834111 156.93329733533 0.1950033526125 -156.2333242867
4.820000000000000 0.1263582565371 -83.13891795372 0.7268229143874 147.45893026711 0.7268229143874 147.45893026711 0.1771011702763 -160.4952996051
4.830000000000000 0.1266597911409 -86.97993632626 0.7382353129212 138.18203161212 0.7382353129212 138.18203161212 0.1574634361498 -165.6235041678
4.840000000000000 0.1217747957354 -90.17446102392 0.7486217723541 129.06857323221 0.7486217723541 129.06857323221 0.1361520249392 -171.4447221432
4.850000000000001 0.1132042237064 -92.35051356166 0.7580576214994 120.09205182908 0.7580576214994 120.09205182908 0.1135902147338 -177.7914524297
4.860000000000000 0.1024270100972 -93.10973394799 0.7665739802969 111.23293092733 0.7665739802969 111.23293092733 0.0904014781318 175.51625102376
4.870000000000000 0.0908968466170 -91.99602774295 0.7741915175637 102.47719365070 0.7741915175637 102.47719365070 0.0672948328123 168.73861827399
4.880000000000000 0.0800360000827 -88.54682603090 0.7809411099250 93.814574752626 0.7809411099250 93.814574752626 0.0449898427886 162.45984444538
4.890000000000001 0.0711755080758 -82.50364612413 0.7868726280635 85.236866054304 0.7868726280635 85.236866054304 0.0242109214475 158.93321557607
4.900000000000000 0.0653589409915 -74.20253498856 0.7920543979098 76.736543317353 0.7920543979098 76.736543317354 0.0066362165987 -176.1954180997
4.910000000000000 0.0630110973684 -64.80574102058 0.7965665541999 68.305837639830 0.7965665541999 68.305837639830 0.0130157267929 -72.60485189880
4.920000000000000 0.0637600281526 -55.81578000534 0.8004915669626 59.936271088388 0.8004915669626 59.936271088388 0.0268349062173 -71.86856314620
4.930000000000001 0.0667241393134 -48.20840173931 0.8039047742323 51.618600559769 0.8039047742323 51.618600559769 0.0384542094510 -79.90755307451
4.940000000000000 0.0710308017348 -42.17336720190 0.8068670048530 43.343065287895 0.8068670048530 43.343065287895 0.0477593416567 -90.48750337818
4.950000000000000 0.0761260310687 -37.46748575757 0.8094205125636 35.099813179723 0.8094205125636 35.099813179723 0.0550569605789 -102.6469766337
4.960000000000000 0.0818013876336 -33.78938827841 0.8115886426871 26.879380806455 0.8115886426871 26.879380806455 0.0608733960478 -116.1147809337
4.970000000000001 0.0880806224592 -30.95227869763 0.8133789867683 18.673116480543 0.8133789867683 18.673116480543 0.0658959394393 -130.7024857703
4.980000000000000 0.0950747186340 -28.90913588370 0.8147892718395 10.473459463457 0.8147892718395 10.473459463457 0.0708825373282 -146.1162843315
4.990000000000000 0.1028554365466 -27.70852594476 0.8158148738023 2.2740176309578 0.8158148738023 2.2740176309578 0.0765209691809 -161.9039135846
5.000000000000000 0.1113720209870 -27.43146754941 0.8164566393980 -5.930581368624 0.8164566393980 -5.930581368624 0.0832722398673 -177.5202619332
5.010000000000001 0.1204197952973 -28.14120017989 0.8167276639334 -14.14505644789 0.8167276639334 -14.14505644789 0.0912699898739 167.53119612831
5.020000000000000 0.1296529412106 -29.86008854857 0.8166578202482 -22.37401563269 0.8166578202482 -22.37401563269 0.1003238150422 153.58226985873
5.030000000000000 0.1386234825782 -32.57088692860 0.8162951653531 -30.62260692464 0.8162951653531 -30.62260692464 0.1100060482251 140.77633600514
5.040000000000000 0.1468286392517 -36.23101254116 0.8157038231839 -38.89719252569 0.8157038231839 -38.89719252569 0.1197634146988 129.11765553913
5.050000000000001 0.1537552542056 -40.78942045071 0.8149584761380 -47.20595680027 0.8149584761380 -47.20595680027 0.1290106358672 118.53891607661
5.060000000000000 0.1589169091640 -46.20063858660 0.8141361006859 -55.55936663379 0.8141361006859 -55.55936663379 0.1371943446085 108.95320739903
5.070000000000000 0.1618837906739 -52.43474961234 0.8133059769363 -63.97042247025 0.8133059769363 -63.97042247025 0.1438332090473 100.28439391250
5.080000000000000 0.1623073979401 -59.48424924215 0.8125192534853 -72.45466646126 0.8125192534853 -72.45466646126 0.1485436036969 92.482066204682
5.090000000000001 0.1599426930881 -67.36934956696 0.8117994640806 -81.02994838292 0.8117994640806 -81.02994838292 0.1510578841300 85.528277709986
5.100000000000001 0.1546698951429 -76.14326478364 0.8111353942339 -89.71598945202 0.8111353942339 -89.71598945202 0.1512391145595 79.440763595918
5.110000000000000 0.1465169424408 -85.89877408641 0.8104775788316 -98.53382979484 0.8104775788316 -98.53382979484 0.1490930422346 74.274802281514
5.120000000000000 0.1356814373116 -96.77692316448 0.8097394005824 -107.5052981053 0.8097394005824 -107.5052981053 0.1447748986507 70.124083025320
5.130000000000000 0.1225469855804 -108.9776476526 0.8088030893827 -116.6526998252 0.8088030893827 -116.6526998252 0.1385850319315 67.120012233448
5.140000000000001 0.1076819707473 -122.7692732120 0.8075296691744 -125.9989733956 0.8075296691744 -125.9989733956 0.1309445097041 65.429626980928
5.150000000000000 0.0917968906293 -138.4878210395 0.8057698637711 -135.5685919553 0.8057698637711 -135.5685919553 0.1223439776070 65.257136372134
5.160000000000000 0.0756185027644 -156.5107638492 0.8033701191323 -145.3894566655 0.8033701191323 -145.3894566655 0.1132769473342 66.866987035423
5.170000000000000 0.0596267095895 -177.2153139839 0.8001644765985 -155.4958918012 0.8001644765985 -155.4958918012 0.1042222756149 70.666468410535
5.180000000000001 0.0436492416546 158.84958124042 0.7959396628163 -165.9325511919 0.7959396628163 -165.9325511919 0.0958557607674 77.380855043920
5.190000000000000 0.0265870010172 128.84124522413 0.7903586459759 -176.7584939171 0.7903586459760 -176.7584939171 0.0898380165468 88.160897391819
5.200000000000000 0.0099190681168 54.472944878051 0.7828297776489 171.95025387986 0.7828297776489 171.95025387986 0.0903637870682 103.65368497617
5.210000000000000 0.0287213778966 -53.97673454985 0.7723212018902 160.10285422082 0.7723212018902 160.10285422082 0.1046174399308 120.96109996206
5.220000000000001 0.0693986545928 -85.90804855650 0.7571594221807 147.60580984239 0.7571594221807 147.60580984239 0.1386659109585 133.98352665302
5.230000000000000 0.1254778525448 -109.1554347813 0.7349391483392 134.39196558517 0.7349391483392 134.39196558517 0.1937968074467 139.93552070127
5.240000000000000 0.1974978000668 -129.8902748269 0.7028028395898 120.47041521896 0.7028028395898 120.47041521896 0.2678984942508 139.88650354873
5.250000000000000 0.2832598710092 -149.3992129079 0.6583835619699 105.98725800513 0.6583835619699 105.98725800513 0.3563004954358 135.65567303954
5.260000000000001 0.3770040516535 -167.9765611608 0.6013174095769 91.261035967842 0.6013174095769 91.261035967842 0.4515607715866 128.76123983367
5.270000000000000 0.4706128696058 174.48475322089 0.5343734785599 76.744236052800 0.5343734785599 76.744236052800 0.5446906843539 120.41126021892
5.280000000000000 0.5564192468395 158.23144313292 0.4629513538601 62.904320738472 0.4629513538601 62.904320738472 0.6279312386780 111.54959014363
5.290000000000000 0.6297074706918 143.46439066731 0.3930158240999 50.092486418815 0.3930158240999 50.092486418815 0.6970354243894 102.83816948086
5.300000000000001 0.6892684712649 130.24984178276 0.3290683192932 38.481279926482 0.3290683192932 38.481279926482 0.7514723849536 94.660235485412
5.310000000000000 0.7363197485033 118.52461632996 0.2733992160653 28.084715875199 0.2733992160653 28.084715875199 0.7930663924076 87.177798511781
5.320000000000000 0.7730937957625 108.14602844013 0.2264669578634 18.817344901245 0.2264669578634 18.817344901245 0.8244699307476 80.412568418688
