! Sonnet Data File
! From: sonnet Version : 18.53-Lite
! From Emgraph Data: 
! Data File Written: 03/28/2024 18:11:55
!< HDATE 03/28/2024 17:47:38
!< MDATE 03/28/2024 17:47:38
!< PARAMS
!< W1 = 0.76
!< L1 = 8.93
!< L2 = 8.78
!< W2 = 1.09
!< END PARAMS
# GHZ S MA R 50.00000
2.000000000000000 0.9941933385173 -132.4996357994 2.0735581084e-4 -42.46442289967 2.0735581084e-4 -42.46442289967 0.9942245780299 -131.4739312097
2.020000000000000 0.9941178207553 -133.9420847530 2.1294854632e-4 -43.92434864824 2.1294854632e-4 -43.92434864824 0.9941380021098 -132.9082822984
2.040000000000000 0.9940420059954 -135.3875139944 2.1870811981e-4 -45.38796197797 2.1870811981e-4 -45.38796197797 0.9940531819982 -134.3457803166
2.060000000000000 0.9939659331117 -136.8359326629 2.2464104145e-4 -46.85519781789 2.2464104145e-4 -46.85519781789 0.9939699768952 -135.7864416822
2.080000000000000 0.9938896358410 -138.2873491016 2.3075409965e-4 -48.32599501909 2.3075409965e-4 -48.32599501909 0.9938882469899 -137.2302818238
2.100000000000000 0.9938131432906 -139.7417708639 2.3705437531e-4 -49.80029620273 2.3705437531e-4 -49.80029620273 0.9938078541279 -138.6773152386
2.120000000000000 0.9937364804082 -141.1992047244 2.4354925688e-4 -51.27804761793 2.4354925688e-4 -51.27804761793 0.9937286624211 -140.1275555507
2.140000000000000 0.9936596684174 -142.6596566944 2.5024645627e-4 -52.75919900729 2.5024645627e-4 -52.75919900729 0.9936505388039 -141.5810155705
2.160000000000000 0.9935827252238 -144.1231320401 2.5715402571e-4 -54.24370347854 2.5715402571e-4 -54.24370347854 0.9935733535364 -143.0377073543
2.180000000000000 0.9935056657910 -145.5896353046 2.6428037566e-4 -55.73151738145 2.6428037566e-4 -55.73151738145 0.9934969806574 -144.4976422651
2.200000000000000 0.9934285024918 -147.0591703338 2.7163429368e-4 -57.22260018979 2.7163429368e-4 -57.22260018979 0.9934212983877 -145.9608310333
2.220000000000000 0.9933512454326 -148.5317403038 2.7922496461e-4 -58.71691438834 2.7922496461e-4 -58.71691438834 0.9933461894851 -147.4272838198
2.240000000000000 0.9932739027535 -150.0073477523 2.8706199189e-4 -60.21442536541 2.8706199189e-4 -60.21442536541 0.9932715415496 -148.8970102781
2.260000000000000 0.9931964809050 -151.4859946119 2.9515542020e-4 -61.71510131116 2.9515542020e-4 -61.71510131116 0.9931972472801 -150.3700196195
2.280000000000000 0.9931189849003 -152.9676822457 3.0351575960e-4 -63.21891312246 3.0351575960e-4 -63.21891312246 0.9931232046824 -151.8463206773
2.300000000000000 0.9930414185457 -154.4524114851 3.1215401104e-4 -64.72583431440 3.1215401104e-4 -64.72583431440 0.9930493172264 -153.3259219730
2.320000000000000 0.9929637846478 -155.9401826696 3.2108169363e-4 -66.23584093868 3.2108169363e-4 -66.23584093868 0.9929754939552 -154.8088317832
2.340000000000000 0.9928860852002 -157.4309956884 3.3031087351e-4 -67.74891150874 3.3031087351e-4 -67.74891150874 0.9929016495437 -156.2950582065
2.360000000000000 0.9928083215521 -158.9248500233 3.3985419461e-4 -69.26502693078 3.3985419461e-4 -69.26502693078 0.9928277043121 -157.7846092314
2.380000000000000 0.9927304945517 -160.4217447940 3.4972491134e-4 -70.78417044052 3.4972491134e-4 -70.78417044052 0.9927535841916 -159.2774928049
2.400000000000000 0.9926526046813 -161.9216788039 3.5993692339e-4 -72.30632754329 3.5993692339e-4 -72.30632754329 0.9926792206510 -160.7737169002
2.420000000000000 0.9925746521697 -163.4246505880 3.7050481273e-4 -73.83148595710 3.7050481273e-4 -73.83148595710 0.9926045505858 -162.2732895850
2.440000000000000 0.9924966370945 -164.9306584621 3.8144388302e-4 -75.35963555656 3.8144388302e-4 -75.35963555656 0.9925295161763 -163.7762190903
2.460000000000000 0.9924185594707 -166.4397005735 3.9277020162e-4 -76.89076831610 3.9277020162e-4 -76.89076831610 0.9924540647221 -165.2825138782
2.480000000000000 0.9923404193284 -167.9517749528 4.0450064432e-4 -78.42487825130 4.0450064432e-4 -78.42487825130 0.9923781484592 -166.7921827102
2.500000000000000 0.9922622167823 -169.4668795682 4.1665294305e-4 -79.96196135735 4.1665294305e-4 -79.96196135735 0.9923017243669 -168.3052347159
2.520000000000000 0.9921839520921 -170.9850123807 4.2924573687e-4 -81.50201554391 4.2924573687e-4 -81.50201554391 0.9922247539715 -169.8216794620
2.540000000000000 0.9921056257150 -172.5061714015 4.4229862636e-4 -83.04504056684 4.4229862636e-4 -83.04504056684 0.9921472031516 -171.3415270220
2.560000000000000 0.9920272383526 -174.0303547510 4.5583223181e-4 -84.59103795700 4.5583223181e-4 -84.59103795700 0.9920690419501 -172.8647880479
2.580000000000000 0.9919487909900 -175.5575607206 4.6986825553e-4 -86.14001094783 4.6986825553e-4 -86.14001094783 0.9919902443942 -174.3914738430
2.600000000000000 0.9918702849289 -177.0877878355 4.8442954845e-4 -87.69196440301 4.8442954845e-4 -87.69196440301 0.9919107883265 -175.9215964373
2.620000000000000 0.9917917218136 -178.6210349213 4.9954018164e-4 -89.24690474649 4.9954018164e-4 -89.24690474649 0.9918306552444 -177.4551686657
2.640000000000000 0.9917131036506 179.84269882830 5.1522552294e-4 -90.80483989706 5.1522552294e-4 -90.80483989706 0.9917498301480 -178.9922042494
2.660000000000000 0.9916344328196 178.30341378020 5.3151231912e-4 -92.36577920965 5.3151231912e-4 -92.36577920965 0.9916683013933 179.46728211893
2.680000000000000 0.9915557120777 176.76110978845 5.4842878428e-4 -93.92973342549 5.4842878428e-4 -93.92973342549 0.9915860605470 177.92327468666
2.700000000000000 0.9914769445553 175.21578611767 5.6600469463e-4 -95.49671463309 5.6600469463e-4 -95.49671463309 0.9915031022404 176.37575654757
2.720000000000000 0.9913981337424 173.66744136366 5.8427149050e-4 -97.06673624151 5.8427149050e-4 -97.06673624151 0.9914194240195 174.82470954438
2.740000000000000 0.9913192834673 172.11607337075 6.0326238604e-4 -98.63981296710 6.0326238604e-4 -98.63981296710 0.9913350261874 173.27011416637
2.760000000000000 0.9912403978650 170.56167914598 6.2301248719e-4 -100.2159608347 6.2301248719e-4 -100.2159608347 0.9912499116384 171.71194944216
2.780000000000000 0.9911614813373 169.00425476985 6.4355891883e-4 -101.7951971934 6.4355891883e-4 -101.7951971934 0.9911640856815 170.15019282743
2.800000000000000 0.9910825385035 167.44379530351 6.6494096163e-4 -103.3775407480 6.6494096163e-4 -103.3775407480 0.9910775558526 168.58482008738
2.820000000000000 0.9910035741411 165.88029469222 6.8720019967e-4 -104.9630116045 6.8720019967e-4 -104.9630116045 0.9909903317153 167.01580517372
2.840000000000000 0.9909245931187 164.31374566480 7.1038067963e-4 -106.5516313316 7.1038067963e-4 -106.5516313316 0.9909024246507 165.44312009590
2.860000000000000 0.9908456003187 162.74413962902 7.3452908257e-4 -108.1434230359 7.3452908257e-4 -108.1434230359 0.9908138476359 163.86673478639
2.880000000000000 0.9907666005528 161.17146656256 7.5969490951e-4 -109.7384114520 7.5969490951e-4 -109.7384114520 0.9907246150133 162.28661695950
2.900000000000000 0.9906875984675 159.59571489928 7.8593068198e-4 -111.3366230466 7.8593068198e-4 -111.3366230466 0.9906347422504 160.70273196348
2.920000000000000 0.9906085984420 158.01687141060 8.1329215893e-4 -112.9380861361 8.1329215893e-4 -112.9380861361 0.9905442456917 159.11504262529
2.940000000000000 0.9905296029019 156.43492053472 8.4183860544e-4 -114.5428316548 8.4183860544e-4 -114.5428316548 0.9904531423026 157.52350908833
2.960000000000000 0.9904506125073 154.84984479618 8.7163301488e-4 -116.1508929490 8.7163301488e-4 -116.1508929490 0.9903614494086 155.92808864033
2.980000000000000 0.9903716282437 153.26162522150 9.0274234946e-4 -117.7623051351 9.0274234946e-4 -117.7623051351 0.9902691844256 154.32873553441
3.000000000000000 0.9902926503426 151.67024065102 9.3523787230e-4 -119.3771057620 9.3523787230e-4 -119.3771057620 0.9901763645873 152.72540079916
3.020000000000000 0.9902136781500 150.07566759019 9.6919547217e-4 -120.9953350019 9.6919547217e-4 -120.9953350019 0.9900830066658 151.11803203903
3.040000000000000 0.9901347099879 148.47788005340 0.0010046960163 -122.6170358586 0.0010046960163 -122.6170358586 0.9899891266869 149.50657322361
3.060000000000000 0.9900557430075 146.87684940001 0.0010418257345 -124.2422543960 0.0010418257345 -124.2422543960 0.9898947396411 147.89096446499
3.080000000000000 0.9899767730361 145.27254416170 0.0010806766363 -125.8710399859 0.0010806766363 -125.8710399859 0.9897998591878 146.27114178240
3.100000000000000 0.9898977944156 143.66492986072 0.0011213469669 -127.5034455805 0.0011213469669 -127.5034455805 0.9897044973546 144.64703685295
3.120000000000000 0.9898187998346 142.05396881824 0.0011639417032 -129.1395280082 0.0011639417032 -129.1395280082 0.9896086642290 143.01857674749
3.140000000000000 0.9897397801515 140.43961995198 0.0012085730953 -130.7793482976 0.0012085730953 -130.7793482976 0.9895123676444 141.38568365039
3.160000000000000 0.9896607242099 138.82183856230 0.0012553612584 -132.4229720294 0.0012553612584 -132.4229720294 0.9894156128572 139.74827456188
3.180000000000000 0.9895816186457 137.20057610576 0.0013044348193 -134.0704697184 0.0013044348193 -134.0704697184 0.9893184022153 138.10626098158
3.200000000000000 0.9895024476838 135.57577995521 0.0013559316242 -135.7219172266 0.0013559316242 -135.7219172266 0.9892207348173 136.45954857166
3.220000000000000 0.9894231929260 133.94739314513 0.0014099995133 -137.3773962061 0.0014099995133 -137.3773962061 0.9891226061601 134.80803679789
3.240000000000000 0.9893438331277 132.31535410105 0.0014667971702 -139.0369945727 0.0014667971702 -139.0369945727 0.9890240077749 133.15161854677
3.260000000000000 0.9892643439627 130.67959635170 0.0015264950537 -140.7008070082 0.0015264950537 -140.7008070082 0.9889249268481 131.49017971661
3.280000000000000 0.9891846977756 129.04004822224 0.0015892764203 -142.3689354885 0.0015892764203 -142.3689354885 0.9888253458276 129.82359878041
3.300000000000000 0.9891048633199 127.39663250702 0.0016553384494 -144.0414898384 0.0016553384494 -144.0414898384 0.9887252420109 128.15174631793
3.320000000000000 0.9890248054801 125.74926611994 0.0017248934806 -145.7185883084 0.0017248934806 -145.7185883084 0.9886245871129 126.47448451428
3.340000000000000 0.9889444849773 124.09785972039 0.0017981703771 -147.4003581748 0.0017981703771 -147.4003581748 0.9885233468116 124.79166662207
3.360000000000000 0.9888638580542 122.44231731251 0.0018754160292 -149.0869363612 0.0018754160292 -149.0869363612 0.9884214802673 123.10313638362
3.380000000000000 0.9887828761391 120.78253581518 0.0019568970153 -150.7784700831 0.0019568970153 -150.7784700831 0.9883189396137 121.40872740963
3.400000000000000 0.9887014854853 119.11840460007 0.0020429014376 -152.4751175164 0.0020429014376 -152.4751175164 0.9882156694145 119.70826251027
3.420000000000000 0.9886196267829 117.44980499459 0.0021337409547 -154.1770484925 0.0021337409547 -154.1770484925 0.9881116060839 118.00155297401
3.440000000000000 0.9885372347390 115.77660974624 0.0022297530354 -155.8844452243 0.0022297530354 -155.8844452243 0.9880066772636 116.28839778918
3.460000000000000 0.9884542376232 114.09868244467 0.0023313034592 -157.5975030653 0.0023313034592 -157.5975030653 0.9879008011514 114.56858280277
3.480000000000000 0.9883705567727 112.41587689702 0.0024387890972 -159.3164313092 0.0024387890972 -159.3164313092 0.9877938857747 112.84187981000
3.500000000000000 0.9882861060522 110.72803645185 0.0025526410076 -161.0414540370 0.0025526410076 -161.0414540370 0.9876858282010 111.10804556786
3.520000000000000 0.9882007912611 109.03499326631 0.0026733278860 -162.7728110182 0.0026733278860 -162.7728110182 0.9875765136772 109.36682072463
3.540000000000000 0.9881145094832 107.33656751050 0.0028013599185 -164.5107586792 0.0028013599185 -164.5107586792 0.9874658146860 107.61792865688
3.560000000000000 0.9880271483672 105.63256650238 0.0029372930913 -166.2555711502 0.0029372930913 -166.2555711502 0.9873535899104 105.86107420392
3.580000000000000 0.9879385853309 103.92278376559 0.0030817340162 -168.0075414069 0.0030817340162 -168.0075414069 0.9872396830903 104.09594228879
3.600000000000000 0.9878486866766 102.20699800172 0.0032353453459 -169.7669825222 0.0032353453459 -169.7669825222 0.9871239217572 102.32219641342
3.620000000000000 0.9877573066042 100.48497196739 0.0033988518585 -171.5342290481 0.0033988518585 -171.5342290481 0.9870061158287 100.53947701400
3.640000000000000 0.9876642861080 98.756451245233 0.0035730473070 -173.3096385457 0.0035730473070 -173.3096385457 0.9868860560426 98.747399660671
3.660000000000000 0.9875694517377 97.021162896547 0.0037588021421 -175.0935932847 0.0037588021421 -175.0935932847 0.9867635122050 96.945553083866
3.680000000000000 0.9874726142030 95.278813981525 0.0039570722362 -176.8865021323 0.0039570722362 -176.8865021323 0.9866382312264 95.133497006858
3.700000000000000 0.9873735667978 93.529089931200 0.0041689087552 -178.6888026551 0.0041689087552 -178.6888026551 0.9865099349108 93.310759761637
3.720000000000000 0.9872720836136 91.771652752911 0.0043954693512 179.49903654416 0.0043954693512 179.49903654416 0.9863783174608 91.476835661816
3.740000000000000 0.9871679175084 90.006139048519 0.0046380308763 177.67651322767 0.0046380308763 177.67651322767 0.9862430426520 89.631182102646
3.760000000000000 0.9870607977897 88.232157821564 0.0048980038547 175.84308863305 0.0048980038547 175.84308863305 0.9861037406248 87.773216353858
3.780000000000000 0.9869504275622 86.449288045982 0.0051769489886 173.99818426008 0.0051769489886 173.99818426008 0.9859600042280 85.902312006022
3.800000000000000 0.9868364806831 84.657075964872 0.0054765960267 172.14117829468 0.0054765960267 172.14117829468 0.9858113848403 84.017795025168
3.820000000000000 0.9867185982534 82.855032082844 0.0057988653799 170.27140162513 0.0057988653799 170.27140162513 0.9856573875797 82.118939363512
3.840000000000000 0.9865963845607 81.042627809756 0.0061458929419 168.38813339726 0.0061458929419 168.38813339726 0.9854974657911 80.204962065915
3.860000000000000 0.9864694023723 79.219291706741 0.0065200586584 166.49059604628 0.0065200586584 166.49059604628 0.9853310146850 78.275017802089
3.880000000000000 0.9863371674524 77.384405277330 0.0069240194934 164.57794973157 0.0069240194934 164.57794973157 0.9851573639675 76.328192743083
3.900000000000000 0.9861991421525 75.537298236738 0.0073607475659 162.64928608812 0.0073607475659 162.64928608812 0.9849757692746 74.363497686997
3.920000000000000 0.9860547278872 73.677243180783 0.0078335743863 160.70362119268 0.0078335743863 160.70362119268 0.9847854021751 72.379860322586
3.940000000000000 0.9859032562668 71.803449561934 0.0083462423112 158.73988762446 0.0083462423112 158.73988762446 0.9845853384612 70.376116499980
3.960000000000000 0.9857439785991 69.915056863163 0.0089029645652 156.75692547856 0.0089029645652 156.75692547856 0.9843745443746 68.351000354276
3.980000000000000 0.9855760534064 68.011126839861 0.0095084954654 154.75347216368 0.0095084954654 154.75347216368 0.9841518603365 66.303133099490
4.000000000000000 0.9853985315121 66.090634675256 0.0101682128394 152.72815078424 0.0101682128394 152.72815078424 0.9839159816410 64.231010275977
4.020000000000000 0.9852103381335 64.152458864467 0.0108882150637 150.67945686788 0.0108882150637 150.67945686788 0.9836654354390 62.132987192638
4.040000000000000 0.9850102512705 62.195369605021 0.0116754357023 148.60574315226 0.0116754357023 148.60574315226 0.9833985531619 60.007262253964
4.060000000000000 0.9847968754807 60.218015425762 0.0125377794107 146.50520208631 0.0125377794107 146.50520208631 0.9831134373114 57.851857798983
4.080000000000000 0.9845686098746 58.218907729017 0.0134842836358 144.37584562918 0.0134842836358 144.37584562918 0.9828079212421 55.664598001260
4.100000000000001 0.9843236088219 56.196402849814 0.0145253117410 142.21548183995 0.0145253117410 142.21548183995 0.9824795201779 53.443083282280
4.120000000000000 0.9840597334074 54.148681146851 0.0156727845765 140.02168763874 0.0156727845765 140.02168763874 0.9821253711889 51.184660569532
4.140000000000001 0.9837744910596 52.073722527519 0.0169404592945 137.79177697838 0.0169404592945 137.79177697838 0.9817421591652 48.886388578532
4.160000000000000 0.9834649599528 49.969277666782 0.0183442664983 135.52276348643 0.0183442664983 135.52276348643 0.9813260249045 46.544997105727
4.180000000000001 0.9831276936501 47.832833997865 0.0199027197615 133.21131640910 0.0199027197615 133.21131640910 0.9808724501769 44.156839074596
4.200000000000000 0.9827585999057 45.661575319167 0.0216374153901 130.85370839603 0.0216374153901 130.85370839603 0.9803761129162 41.717833764031
4.220000000000001 0.9823527853868 43.452333560036 0.0235736452989 128.44575328715 0.0235736452989 128.44575328715 0.9798307033289 39.223399244374
4.240000000000000 0.9819043550570 41.201530855396 0.0257411524403 125.98273157236 0.0257411524403 125.98273157236 0.9792286884182 36.668371522512
4.260000000000001 0.9814061506921 38.905109565025 0.0281750668898 123.45930055288 0.0281750668898 123.45930055288 0.9785610077982 34.046907212637
4.280000000000000 0.9808494069005 36.558447195254 0.0309170721891 120.86938538737 0.0309170721891 120.86938538737 0.9778166771079 31.352365647725
4.300000000000001 0.9802232942209 34.156252280937 0.0340168668914 118.20604608349 0.0340168668914 118.20604608349 0.9769822659094 28.577165151147
4.320000000000000 0.9795143060374 31.692436083212 0.0375340068057 115.46131399528 0.0375340068057 115.46131399528 0.9760412032968 25.712606590595
4.340000000000000 0.9787054271344 29.159953342528 0.0415402411070 112.62598936677 0.0415402411070 112.62598936677 0.9749728444065 22.748655187033
4.360000000000000 0.9777749935109 26.550603142509 0.0461224928086 109.68938872545 0.0461224928086 109.68938872545 0.9737512013176 19.673668638958
4.380000000000000 0.9766951105405 23.854777976548 0.0513866845234 106.63902719770 0.0513866845234 106.63902719770 0.9723431972706 16.474055650602
4.400000000000000 0.9754294316887 21.061145077880 0.0574626784255 103.46021570790 0.0574626784255 103.46021570790 0.9707062355164 13.133843508204
4.420000000000000 0.9739299998897 18.156238595233 0.0645106903394 100.13554600300 0.0645106903394 100.13554600300 0.9687847703238 9.6341258581869
4.440000000000000 0.9721326975340 15.123933794673 0.0727296578909 96.644226807476 0.0727296578909 96.644226807476 0.9665054066267 5.9523515298418
4.460000000000000 0.9699506049919 11.944764617335 0.0823681961068 92.961221262505 0.0823681961068 92.961221262505 0.9637698024181 2.0614011102211
4.480000000000000 0.9672641768358 8.5950332206110 0.0937389582120 89.056118133490 0.0937389582120 89.056118133490 0.9604442493690 -2.071621154353
4.500000000000000 0.9639065213260 5.0456448150164 0.1072374112516 84.891646319354 0.1072374112516 84.891646319354 0.9563441747667 -6.486977734950
4.520000000000000 0.9596410747688 1.2605854088918 0.1233661580982 80.421714480572 0.1233661580982 80.421714480572 0.9512108065161 -11.23439927193
4.540000000000000 0.9541273971742 -2.805048432426 0.1427657807414 75.588829692318 0.1427657807414 75.588829692318 0.9446756783260 -16.37585938772
4.560000000000000 0.9468684317417 -7.207538994845 0.1662522309304 70.320736484482 0.1662522309304 70.320736484482 0.9362062932068 -21.98920692856
4.580000000000000 0.9371292204298 -12.01752585256 0.1948578593812 64.526163573453 0.1948578593812 64.526163573453 0.9250230002445 -28.17280962008
4.600000000000001 0.9238132830723 -17.32313200383 0.2298656292326 58.089778190824 0.2298656292326 58.089778190824 0.9099735851887 -35.05117889512
4.620000000000000 0.9052817063091 -23.23208373092 0.2728085980493 50.867077659290 0.2728085980493 50.867077659290 0.8893514411155 -42.78096913423
4.640000000000001 0.8791120673631 -29.86974640934 0.3253703672614 42.681516085257 0.3253703672614 42.681516085257 0.8606563030348 -51.55528186650
4.660000000000000 0.8418487352135 -37.36588651067 0.3890582444201 33.329546577565 0.3890582444201 33.329546577565 0.8203524956577 -61.60104622836
